
D:\KV260-project-HLS\b_qwen35\build\b03_baseline_hls\hls\sim\verilog>set PATH= 

D:\KV260-project-HLS\b_qwen35\build\b03_baseline_hls\hls\sim\verilog>call D:/2026.1/2026.1/Vivado/bin/xelab xil_defaultlib.apatb_w4a8_linear_v1_top xil_defaultlib.glbl -Oenable_linking_all_libraries -prj w4a8_linear_v1.prj -L smartconnect_v1_0 -L axi_protocol_checker_v1_1_12 -L axi_protocol_checker_v1_1_13 -L axis_protocol_checker_v1_1_11 -L axis_protocol_checker_v1_1_12 -L xil_defaultlib -L unisims_ver -L xpm  -L floating_point_v7_1_22 -L floating_point_v7_0_27 --lib "ieee_proposed=./ieee_proposed" -L uvm -relax -i ./svr -i ./axivip -i ./svtb -i ./file_agent -i ./w4a8_linear_v1_subsystem  -s w4a8_linear_v1 -debug all 
Vivado Simulator v2026.1
Copyright 1986-2022 Xilinx, Inc. All Rights Reserved.
Copyright 2022-2026 Advanced Micro Devices, Inc. All Rights Reserved.
Running: D:/2026.1/2026.1/Vivado/bin/unwrapped/win64.o/xelab.exe xil_defaultlib.apatb_w4a8_linear_v1_top xil_defaultlib.glbl -Oenable_linking_all_libraries -prj w4a8_linear_v1.prj -L smartconnect_v1_0 -L axi_protocol_checker_v1_1_12 -L axi_protocol_checker_v1_1_13 -L axis_protocol_checker_v1_1_11 -L axis_protocol_checker_v1_1_12 -L xil_defaultlib -L unisims_ver -L xpm -L floating_point_v7_1_22 -L floating_point_v7_0_27 --lib ieee_proposed=./ieee_proposed -L uvm -relax -i ./svr -i ./axivip -i ./svtb -i ./file_agent -i ./w4a8_linear_v1_subsystem -s w4a8_linear_v1 -debug all 
Multi-threading is on. Using 16 slave threads.
Determining compilation order of HDL files.
WARNING: [XSIM 43-3431] One or more environment variables have been detected which affect the operation of the C compiler. These are typically not set in standard installations and are not tested by AMD, however they may be appropriate for your system, so the flow will attempt to continue.  If errors occur, try running xelab with the "-mt off -v 1" switches to see more information from the C compiler. The following environment variables have been detected:
    CPATH
INFO: [VRFC 10-2263] Analyzing SystemVerilog file "D:/KV260-project-HLS/b_qwen35/build/b03_baseline_hls/hls/sim/verilog/glbl.v" into library xil_defaultlib
INFO: [VRFC 10-311] analyzing module glbl
INFO: [VRFC 10-2263] Analyzing SystemVerilog file "D:/KV260-project-HLS/b_qwen35/build/b03_baseline_hls/hls/sim/verilog/w4a8_linear_v1.autotb.v" into library xil_defaultlib
INFO: [VRFC 10-311] analyzing module apatb_w4a8_linear_v1_top
INFO: [VRFC 10-2263] Analyzing SystemVerilog file "D:/KV260-project-HLS/b_qwen35/build/b03_baseline_hls/hls/sim/verilog/w4a8_linear_v1.v" into library xil_defaultlib
INFO: [VRFC 10-311] analyzing module w4a8_linear_v1
INFO: [VRFC 10-2263] Analyzing SystemVerilog file "D:/KV260-project-HLS/b_qwen35/build/b03_baseline_hls/hls/sim/verilog/w4a8_linear_v1_control_s_axi.v" into library xil_defaultlib
INFO: [VRFC 10-311] analyzing module w4a8_linear_v1_control_s_axi
INFO: [VRFC 10-2263] Analyzing SystemVerilog file "D:/KV260-project-HLS/b_qwen35/build/b03_baseline_hls/hls/sim/verilog/w4a8_linear_v1_fadd_32ns_32ns_32_6_full_dsp_1.v" into library xil_defaultlib
INFO: [VRFC 10-311] analyzing module w4a8_linear_v1_fadd_32ns_32ns_32_6_full_dsp_1
INFO: [VRFC 10-2263] Analyzing SystemVerilog file "D:/KV260-project-HLS/b_qwen35/build/b03_baseline_hls/hls/sim/verilog/w4a8_linear_v1_flow_control_loop_pipe_sequential_init.v" into library xil_defaultlib
INFO: [VRFC 10-311] analyzing module w4a8_linear_v1_flow_control_loop_pipe_sequential_init
INFO: [VRFC 10-2263] Analyzing SystemVerilog file "D:/KV260-project-HLS/b_qwen35/build/b03_baseline_hls/hls/sim/verilog/w4a8_linear_v1_fmul_32ns_32ns_32_4_max_dsp_1.v" into library xil_defaultlib
INFO: [VRFC 10-311] analyzing module w4a8_linear_v1_fmul_32ns_32ns_32_4_max_dsp_1
INFO: [VRFC 10-2263] Analyzing SystemVerilog file "D:/KV260-project-HLS/b_qwen35/build/b03_baseline_hls/hls/sim/verilog/w4a8_linear_v1_gmem_meta_m_axi.v" into library xil_defaultlib
INFO: [VRFC 10-311] analyzing module w4a8_linear_v1_gmem_meta_m_axi
INFO: [VRFC 10-311] analyzing module w4a8_linear_v1_gmem_meta_m_axi_load
INFO: [VRFC 10-311] analyzing module w4a8_linear_v1_gmem_meta_m_axi_store
INFO: [VRFC 10-311] analyzing module w4a8_linear_v1_gmem_meta_m_axi_read
INFO: [VRFC 10-311] analyzing module w4a8_linear_v1_gmem_meta_m_axi_write
INFO: [VRFC 10-311] analyzing module w4a8_linear_v1_gmem_meta_m_axi_burst_converter
INFO: [VRFC 10-311] analyzing module w4a8_linear_v1_gmem_meta_m_axi_burst_interleave
INFO: [VRFC 10-311] analyzing module w4a8_linear_v1_gmem_meta_m_axi_burst_sequential
INFO: [VRFC 10-311] analyzing module w4a8_linear_v1_gmem_meta_m_axi_throttle
INFO: [VRFC 10-311] analyzing module w4a8_linear_v1_gmem_meta_m_axi_reg_slice
INFO: [VRFC 10-311] analyzing module w4a8_linear_v1_gmem_meta_m_axi_fifo
INFO: [VRFC 10-311] analyzing module w4a8_linear_v1_gmem_meta_m_axi_srl
INFO: [VRFC 10-311] analyzing module w4a8_linear_v1_gmem_meta_m_axi_mem
INFO: [VRFC 10-2263] Analyzing SystemVerilog file "D:/KV260-project-HLS/b_qwen35/build/b03_baseline_hls/hls/sim/verilog/w4a8_linear_v1_gmem_sw_m_axi.v" into library xil_defaultlib
INFO: [VRFC 10-311] analyzing module w4a8_linear_v1_gmem_sw_m_axi
INFO: [VRFC 10-311] analyzing module w4a8_linear_v1_gmem_sw_m_axi_load
INFO: [VRFC 10-311] analyzing module w4a8_linear_v1_gmem_sw_m_axi_read
INFO: [VRFC 10-311] analyzing module w4a8_linear_v1_gmem_sw_m_axi_burst_converter
INFO: [VRFC 10-311] analyzing module w4a8_linear_v1_gmem_sw_m_axi_burst_interleave
INFO: [VRFC 10-311] analyzing module w4a8_linear_v1_gmem_sw_m_axi_burst_sequential
INFO: [VRFC 10-311] analyzing module w4a8_linear_v1_gmem_sw_m_axi_reg_slice
INFO: [VRFC 10-311] analyzing module w4a8_linear_v1_gmem_sw_m_axi_fifo
INFO: [VRFC 10-311] analyzing module w4a8_linear_v1_gmem_sw_m_axi_srl
INFO: [VRFC 10-311] analyzing module w4a8_linear_v1_gmem_sw_m_axi_mem
INFO: [VRFC 10-2263] Analyzing SystemVerilog file "D:/KV260-project-HLS/b_qwen35/build/b03_baseline_hls/hls/sim/verilog/w4a8_linear_v1_gmem_w_m_axi.v" into library xil_defaultlib
INFO: [VRFC 10-311] analyzing module w4a8_linear_v1_gmem_w_m_axi
INFO: [VRFC 10-311] analyzing module w4a8_linear_v1_gmem_w_m_axi_load
INFO: [VRFC 10-311] analyzing module w4a8_linear_v1_gmem_w_m_axi_read
INFO: [VRFC 10-311] analyzing module w4a8_linear_v1_gmem_w_m_axi_burst_converter
INFO: [VRFC 10-311] analyzing module w4a8_linear_v1_gmem_w_m_axi_burst_interleave
INFO: [VRFC 10-311] analyzing module w4a8_linear_v1_gmem_w_m_axi_burst_sequential
INFO: [VRFC 10-311] analyzing module w4a8_linear_v1_gmem_w_m_axi_reg_slice
INFO: [VRFC 10-311] analyzing module w4a8_linear_v1_gmem_w_m_axi_fifo
INFO: [VRFC 10-311] analyzing module w4a8_linear_v1_gmem_w_m_axi_srl
INFO: [VRFC 10-311] analyzing module w4a8_linear_v1_gmem_w_m_axi_mem
INFO: [VRFC 10-2263] Analyzing SystemVerilog file "D:/KV260-project-HLS/b_qwen35/build/b03_baseline_hls/hls/sim/verilog/w4a8_linear_v1_gmem_x_m_axi.v" into library xil_defaultlib
INFO: [VRFC 10-311] analyzing module w4a8_linear_v1_gmem_x_m_axi
INFO: [VRFC 10-311] analyzing module w4a8_linear_v1_gmem_x_m_axi_load
INFO: [VRFC 10-311] analyzing module w4a8_linear_v1_gmem_x_m_axi_read
INFO: [VRFC 10-311] analyzing module w4a8_linear_v1_gmem_x_m_axi_burst_converter
INFO: [VRFC 10-311] analyzing module w4a8_linear_v1_gmem_x_m_axi_burst_interleave
INFO: [VRFC 10-311] analyzing module w4a8_linear_v1_gmem_x_m_axi_burst_sequential
INFO: [VRFC 10-311] analyzing module w4a8_linear_v1_gmem_x_m_axi_reg_slice
INFO: [VRFC 10-311] analyzing module w4a8_linear_v1_gmem_x_m_axi_fifo
INFO: [VRFC 10-311] analyzing module w4a8_linear_v1_gmem_x_m_axi_srl
INFO: [VRFC 10-311] analyzing module w4a8_linear_v1_gmem_x_m_axi_mem
INFO: [VRFC 10-2263] Analyzing SystemVerilog file "D:/KV260-project-HLS/b_qwen35/build/b03_baseline_hls/hls/sim/verilog/w4a8_linear_v1_gmem_y_m_axi.v" into library xil_defaultlib
INFO: [VRFC 10-311] analyzing module w4a8_linear_v1_gmem_y_m_axi
INFO: [VRFC 10-311] analyzing module w4a8_linear_v1_gmem_y_m_axi_store
INFO: [VRFC 10-311] analyzing module w4a8_linear_v1_gmem_y_m_axi_write
INFO: [VRFC 10-311] analyzing module w4a8_linear_v1_gmem_y_m_axi_burst_converter
INFO: [VRFC 10-311] analyzing module w4a8_linear_v1_gmem_y_m_axi_burst_interleave
INFO: [VRFC 10-311] analyzing module w4a8_linear_v1_gmem_y_m_axi_burst_sequential
INFO: [VRFC 10-311] analyzing module w4a8_linear_v1_gmem_y_m_axi_throttle
INFO: [VRFC 10-311] analyzing module w4a8_linear_v1_gmem_y_m_axi_reg_slice
INFO: [VRFC 10-311] analyzing module w4a8_linear_v1_gmem_y_m_axi_fifo
INFO: [VRFC 10-311] analyzing module w4a8_linear_v1_gmem_y_m_axi_srl
INFO: [VRFC 10-311] analyzing module w4a8_linear_v1_gmem_y_m_axi_mem
INFO: [VRFC 10-2263] Analyzing SystemVerilog file "D:/KV260-project-HLS/b_qwen35/build/b03_baseline_hls/hls/sim/verilog/w4a8_linear_v1_mac_muladd_8s_4s_19s_19_4_1.v" into library xil_defaultlib
INFO: [VRFC 10-311] analyzing module w4a8_linear_v1_mac_muladd_8s_4s_19s_19_4_1_DSP48_0
INFO: [VRFC 10-311] analyzing module w4a8_linear_v1_mac_muladd_8s_4s_19s_19_4_1
INFO: [VRFC 10-2263] Analyzing SystemVerilog file "D:/KV260-project-HLS/b_qwen35/build/b03_baseline_hls/hls/sim/verilog/w4a8_linear_v1_mac_muladd_8s_5s_20s_20_4_1.v" into library xil_defaultlib
INFO: [VRFC 10-311] analyzing module w4a8_linear_v1_mac_muladd_8s_5s_20s_20_4_1_DSP48_0
INFO: [VRFC 10-311] analyzing module w4a8_linear_v1_mac_muladd_8s_5s_20s_20_4_1
INFO: [VRFC 10-2263] Analyzing SystemVerilog file "D:/KV260-project-HLS/b_qwen35/build/b03_baseline_hls/hls/sim/verilog/w4a8_linear_v1_mul_25ns_27ns_52_1_1.v" into library xil_defaultlib
INFO: [VRFC 10-311] analyzing module w4a8_linear_v1_mul_25ns_27ns_52_1_1
INFO: [VRFC 10-2263] Analyzing SystemVerilog file "D:/KV260-project-HLS/b_qwen35/build/b03_baseline_hls/hls/sim/verilog/w4a8_linear_v1_mul_32ns_25ns_57_1_1.v" into library xil_defaultlib
INFO: [VRFC 10-311] analyzing module w4a8_linear_v1_mul_32ns_25ns_57_1_1
INFO: [VRFC 10-2263] Analyzing SystemVerilog file "D:/KV260-project-HLS/b_qwen35/build/b03_baseline_hls/hls/sim/verilog/w4a8_linear_v1_mul_32ns_32ns_62_1_1.v" into library xil_defaultlib
INFO: [VRFC 10-311] analyzing module w4a8_linear_v1_mul_32ns_32ns_62_1_1
INFO: [VRFC 10-2263] Analyzing SystemVerilog file "D:/KV260-project-HLS/b_qwen35/build/b03_baseline_hls/hls/sim/verilog/w4a8_linear_v1_mul_32ns_32ns_64_1_1.v" into library xil_defaultlib
INFO: [VRFC 10-311] analyzing module w4a8_linear_v1_mul_32ns_32ns_64_1_1
INFO: [VRFC 10-2263] Analyzing SystemVerilog file "D:/KV260-project-HLS/b_qwen35/build/b03_baseline_hls/hls/sim/verilog/w4a8_linear_v1_p_anonymous_namespace_contains_invalid_w4.v" into library xil_defaultlib
INFO: [VRFC 10-311] analyzing module w4a8_linear_v1_p_anonymous_namespace_contains_invalid_w4
INFO: [VRFC 10-2263] Analyzing SystemVerilog file "D:/KV260-project-HLS/b_qwen35/build/b03_baseline_hls/hls/sim/verilog/w4a8_linear_v1_p_anonymous_namespace_contains_invalid_w4_Pipeline_VITIS_LOOP_105_3.v" into library xil_defaultlib
INFO: [VRFC 10-311] analyzing module w4a8_linear_v1_p_anonymous_namespace_contains_invalid_w4_Pipeline_VITIS_LOOP_105_3
INFO: [VRFC 10-2263] Analyzing SystemVerilog file "D:/KV260-project-HLS/b_qwen35/build/b03_baseline_hls/hls/sim/verilog/w4a8_linear_v1_p_anonymous_namespace_contains_invalid_w4_Pipeline_VITIS_LOOP_51_1.v" into library xil_defaultlib
INFO: [VRFC 10-311] analyzing module w4a8_linear_v1_p_anonymous_namespace_contains_invalid_w4_Pipeline_VITIS_LOOP_51_1
INFO: [VRFC 10-2263] Analyzing SystemVerilog file "D:/KV260-project-HLS/b_qwen35/build/b03_baseline_hls/hls/sim/verilog/w4a8_linear_v1_p_anonymous_namespace_contains_invalid_w4_weight_tile_RAM_AUTO_1R1W.v" into library xil_defaultlib
INFO: [VRFC 10-311] analyzing module w4a8_linear_v1_p_anonymous_namespace_contains_invalid_w4_weight_tile_RAM_AUTO_1R1W
INFO: [VRFC 10-2263] Analyzing SystemVerilog file "D:/KV260-project-HLS/b_qwen35/build/b03_baseline_hls/hls/sim/verilog/w4a8_linear_v1_p_anonymous_namespace_write_meta.v" into library xil_defaultlib
INFO: [VRFC 10-311] analyzing module w4a8_linear_v1_p_anonymous_namespace_write_meta
INFO: [VRFC 10-2263] Analyzing SystemVerilog file "D:/KV260-project-HLS/b_qwen35/build/b03_baseline_hls/hls/sim/verilog/w4a8_linear_v1_scale_tile_RAM_AUTO_1R1W.v" into library xil_defaultlib
INFO: [VRFC 10-311] analyzing module w4a8_linear_v1_scale_tile_RAM_AUTO_1R1W
INFO: [VRFC 10-2263] Analyzing SystemVerilog file "D:/KV260-project-HLS/b_qwen35/build/b03_baseline_hls/hls/sim/verilog/w4a8_linear_v1_sitofp_32ns_32_5_no_dsp_1.v" into library xil_defaultlib
INFO: [VRFC 10-311] analyzing module w4a8_linear_v1_sitofp_32ns_32_5_no_dsp_1
INFO: [VRFC 10-2263] Analyzing SystemVerilog file "D:/KV260-project-HLS/b_qwen35/build/b03_baseline_hls/hls/sim/verilog/w4a8_linear_v1_sparsemux_65_5_32_1_1.v" into library xil_defaultlib
INFO: [VRFC 10-311] analyzing module w4a8_linear_v1_sparsemux_65_5_32_1_1
INFO: [VRFC 10-2263] Analyzing SystemVerilog file "D:/KV260-project-HLS/b_qwen35/build/b03_baseline_hls/hls/sim/verilog/w4a8_linear_v1_token_activations_RAM_1P_BRAM_1R1W.v" into library xil_defaultlib
INFO: [VRFC 10-311] analyzing module w4a8_linear_v1_token_activations_RAM_1P_BRAM_1R1W
INFO: [VRFC 10-2263] Analyzing SystemVerilog file "D:/KV260-project-HLS/b_qwen35/build/b03_baseline_hls/hls/sim/verilog/w4a8_linear_v1_totals_RAM_AUTO_1R1W.v" into library xil_defaultlib
INFO: [VRFC 10-311] analyzing module w4a8_linear_v1_totals_RAM_AUTO_1R1W
INFO: [VRFC 10-2263] Analyzing SystemVerilog file "D:/KV260-project-HLS/b_qwen35/build/b03_baseline_hls/hls/sim/verilog/w4a8_linear_v1_w4a8_linear_v1_Pipeline_VITIS_LOOP_428_2.v" into library xil_defaultlib
INFO: [VRFC 10-311] analyzing module w4a8_linear_v1_w4a8_linear_v1_Pipeline_VITIS_LOOP_428_2
INFO: [VRFC 10-2263] Analyzing SystemVerilog file "D:/KV260-project-HLS/b_qwen35/build/b03_baseline_hls/hls/sim/verilog/w4a8_linear_v1_w4a8_linear_v1_Pipeline_VITIS_LOOP_438_4.v" into library xil_defaultlib
INFO: [VRFC 10-311] analyzing module w4a8_linear_v1_w4a8_linear_v1_Pipeline_VITIS_LOOP_438_4
INFO: [VRFC 10-2263] Analyzing SystemVerilog file "D:/KV260-project-HLS/b_qwen35/build/b03_baseline_hls/hls/sim/verilog/w4a8_linear_v1_w4a8_linear_v1_Pipeline_VITIS_LOOP_469_6.v" into library xil_defaultlib
INFO: [VRFC 10-311] analyzing module w4a8_linear_v1_w4a8_linear_v1_Pipeline_VITIS_LOOP_469_6
INFO: [VRFC 10-2263] Analyzing SystemVerilog file "D:/KV260-project-HLS/b_qwen35/build/b03_baseline_hls/hls/sim/verilog/w4a8_linear_v1_w4a8_linear_v1_Pipeline_VITIS_LOOP_486_7.v" into library xil_defaultlib
INFO: [VRFC 10-311] analyzing module w4a8_linear_v1_w4a8_linear_v1_Pipeline_VITIS_LOOP_486_7
INFO: [VRFC 10-2263] Analyzing SystemVerilog file "D:/KV260-project-HLS/b_qwen35/build/b03_baseline_hls/hls/sim/verilog/w4a8_linear_v1_w4a8_linear_v1_Pipeline_VITIS_LOOP_500_8.v" into library xil_defaultlib
INFO: [VRFC 10-311] analyzing module w4a8_linear_v1_w4a8_linear_v1_Pipeline_VITIS_LOOP_500_8
INFO: [VRFC 10-2263] Analyzing SystemVerilog file "D:/KV260-project-HLS/b_qwen35/build/b03_baseline_hls/hls/sim/verilog/w4a8_linear_v1_w4a8_linear_v1_Pipeline_VITIS_LOOP_510_9.v" into library xil_defaultlib
INFO: [VRFC 10-311] analyzing module w4a8_linear_v1_w4a8_linear_v1_Pipeline_VITIS_LOOP_510_9
INFO: [VRFC 10-2263] Analyzing SystemVerilog file "D:/KV260-project-HLS/b_qwen35/build/b03_baseline_hls/hls/sim/verilog/w4a8_linear_v1_w4a8_linear_v1_Pipeline_VITIS_LOOP_51_1.v" into library xil_defaultlib
INFO: [VRFC 10-311] analyzing module w4a8_linear_v1_w4a8_linear_v1_Pipeline_VITIS_LOOP_51_1
INFO: [VRFC 10-2263] Analyzing SystemVerilog file "D:/KV260-project-HLS/b_qwen35/build/b03_baseline_hls/hls/sim/verilog/w4a8_linear_v1_w4a8_tile_group_sums.v" into library xil_defaultlib
INFO: [VRFC 10-311] analyzing module w4a8_linear_v1_w4a8_tile_group_sums
INFO: [VRFC 10-2263] Analyzing SystemVerilog file "D:/KV260-project-HLS/b_qwen35/build/b03_baseline_hls/hls/sim/verilog/w4a8_linear_v1_weight_tile_RAM_AUTO_1R1W.v" into library xil_defaultlib
INFO: [VRFC 10-311] analyzing module w4a8_linear_v1_weight_tile_RAM_AUTO_1R1W
INFO: [VRFC 10-2263] Analyzing SystemVerilog file "D:/KV260-project-HLS/b_qwen35/build/b03_baseline_hls/hls/sim/verilog/dataflow_monitor.sv" into library xil_defaultlib
INFO: [VRFC 10-311] analyzing module dataflow_monitor
INFO: [VRFC 10-2263] Analyzing SystemVerilog file "D:/KV260-project-HLS/b_qwen35/build/b03_baseline_hls/hls/sim/verilog/file_agent/file_agent_pkg.sv" into library xil_defaultlib
INFO: [VRFC 10-2263] Analyzing SystemVerilog file "D:/KV260-project-HLS/b_qwen35/build/b03_baseline_hls/hls/sim/verilog/axivip/axi_pkg.sv" into library xil_defaultlib
INFO: [VRFC 10-2263] Analyzing SystemVerilog file "D:/KV260-project-HLS/b_qwen35/build/b03_baseline_hls/hls/sim/verilog/axivip/axi_if.sv" into library xil_defaultlib
INFO: [VRFC 10-2263] Analyzing SystemVerilog file "D:/KV260-project-HLS/b_qwen35/build/b03_baseline_hls/hls/sim/verilog/w4a8_linear_v1_subsystem/w4a8_linear_v1_subsystem_pkg.sv" into library xil_defaultlib
INFO: [VRFC 10-2263] Analyzing SystemVerilog file "D:/KV260-project-HLS/b_qwen35/build/b03_baseline_hls/hls/sim/verilog/svtb/misc_interface.sv" into library xil_defaultlib
INFO: [VRFC 10-2263] Analyzing SystemVerilog file "D:/KV260-project-HLS/b_qwen35/build/b03_baseline_hls/hls/sim/verilog/svtb/sv_module_top.sv" into library xil_defaultlib
INFO: [VRFC 10-311] analyzing module sv_module_top
INFO: [VRFC 10-163] Analyzing VHDL file "D:/KV260-project-HLS/b_qwen35/build/b03_baseline_hls/hls/sim/verilog/ip/xil_defaultlib/w4a8_linear_v1_fadd_32ns_32ns_32_6_full_dsp_1_ip.vhd" into library xil_defaultlib
INFO: [VRFC 10-3107] analyzing entity 'w4a8_linear_v1_fadd_32ns_32ns_32_6_full_dsp_1_ip'
INFO: [VRFC 10-163] Analyzing VHDL file "D:/KV260-project-HLS/b_qwen35/build/b03_baseline_hls/hls/sim/verilog/ip/xil_defaultlib/w4a8_linear_v1_fmul_32ns_32ns_32_4_max_dsp_1_ip.vhd" into library xil_defaultlib
INFO: [VRFC 10-3107] analyzing entity 'w4a8_linear_v1_fmul_32ns_32ns_32_4_max_dsp_1_ip'
INFO: [VRFC 10-163] Analyzing VHDL file "D:/KV260-project-HLS/b_qwen35/build/b03_baseline_hls/hls/sim/verilog/ip/xil_defaultlib/w4a8_linear_v1_sitofp_32ns_32_5_no_dsp_1_ip.vhd" into library xil_defaultlib
INFO: [VRFC 10-3107] analyzing entity 'w4a8_linear_v1_sitofp_32ns_32_5_no_dsp_1_ip'
Starting static elaboration
Pass Through NonSizing Optimizer
Completed static elaboration
Starting simulation data flow analysis
Completed simulation data flow analysis
Time Resolution for simulation is 1ps
Compiling package std.standard
Compiling package std.textio
Compiling package ieee.std_logic_1164
Compiling package ieee.numeric_std
Compiling package floating_point_v7_1_22.floating_point_v7_1_22_viv_comp
Compiling package xbip_utils_v3_0_16.xbip_utils_v3_0_16_pkg
Compiling package axi_utils_v2_0_12.axi_utils_v2_0_12_pkg
Compiling package floating_point_v7_1_22.floating_point_v7_1_22_consts
Compiling package ieee.math_real
Compiling package floating_point_v7_1_22.floating_point_v7_1_22_exp_table...
Compiling package mult_gen_v12_0_25.mult_gen_v12_0_25_pkg
Compiling package floating_point_v7_1_22.floating_point_v7_1_22_pkg
Compiling package floating_point_v7_1_22.flt_utils
Compiling package xbip_pipe_v3_0_12.xbip_pipe_v3_0_12_viv_comp
Compiling package unisim.vcomponents
Compiling package ieee.vital_timing
Compiling package ieee.vital_primitives
Compiling package unisim.vpkg
Compiling package floating_point_v7_1_22.vt2mutils
Compiling package floating_point_v7_1_22.vt2mcomps
Compiling package xil_defaultlib.$unit_sv_module_top_sv
Compiling package uvm.uvm_pkg
Compiling package std.std
Compiling package xil_defaultlib.axi_pkg
Compiling package xil_defaultlib.w4a8_linear_v1_subsystem_pkg
Compiling package xil_defaultlib.file_agent_pkg
Compiling package xil_defaultlib.$unit_dataflow_monitor_sv
Compiling module xil_defaultlib.w4a8_linear_v1_weight_tile_RAM_A...
Compiling module xil_defaultlib.w4a8_linear_v1_token_activations...
Compiling module xil_defaultlib.w4a8_linear_v1_scale_tile_RAM_AU...
Compiling module xil_defaultlib.w4a8_linear_v1_totals_RAM_AUTO_1...
Compiling module xil_defaultlib.w4a8_linear_v1_p_anonymous_names...
Compiling module xil_defaultlib.w4a8_linear_v1_p_anonymous_names...
Compiling module xil_defaultlib.w4a8_linear_v1_flow_control_loop...
Compiling module xil_defaultlib.w4a8_linear_v1_p_anonymous_names...
Compiling module xil_defaultlib.w4a8_linear_v1_p_anonymous_names...
Compiling module xil_defaultlib.w4a8_linear_v1_mul_25ns_27ns_52_...
Compiling module xil_defaultlib.w4a8_linear_v1_p_anonymous_names...
Compiling module xil_defaultlib.w4a8_linear_v1_w4a8_linear_v1_Pi...
Compiling module xil_defaultlib.w4a8_linear_v1_w4a8_linear_v1_Pi...
Compiling module xil_defaultlib.w4a8_linear_v1_w4a8_linear_v1_Pi...
Compiling module xil_defaultlib.w4a8_linear_v1_w4a8_linear_v1_Pi...
Compiling module xil_defaultlib.w4a8_linear_v1_w4a8_linear_v1_Pi...
Compiling module xil_defaultlib.w4a8_linear_v1_mac_muladd_8s_4s_...
Compiling module xil_defaultlib.w4a8_linear_v1_mac_muladd_8s_4s_...
Compiling module xil_defaultlib.w4a8_linear_v1_mac_muladd_8s_5s_...
Compiling module xil_defaultlib.w4a8_linear_v1_mac_muladd_8s_5s_...
Compiling module xil_defaultlib.w4a8_linear_v1_w4a8_tile_group_s...
Compiling architecture muxcy_v of entity unisim.MUXCY [muxcy_default]
Compiling architecture synth of entity xbip_pipe_v3_0_12.xbip_pipe_v3_0_12_viv [\xbip_pipe_v3_0_12_viv(c_has_ce=...]
Compiling architecture rtl of entity floating_point_v7_1_22.delay [\delay(width=7,length=0)\]
Compiling architecture struct of entity floating_point_v7_1_22.carry_chain [\carry_chain(c_xdevicefamily="zy...]
Compiling architecture synth of entity floating_point_v7_1_22.compare_eq_im [\compare_eq_im(c_xdevicefamily="...]
Compiling architecture xorcy_v of entity unisim.XORCY [xorcy_default]
Compiling architecture struct of entity floating_point_v7_1_22.carry_chain [\carry_chain(c_xdevicefamily="zy...]
Compiling architecture synth of entity xbip_pipe_v3_0_12.xbip_pipe_v3_0_12_viv [\xbip_pipe_v3_0_12_viv(c_has_ce=...]
Compiling architecture rtl of entity floating_point_v7_1_22.delay [\delay(length=0)\]
Compiling architecture synth of entity xbip_pipe_v3_0_12.xbip_pipe_v3_0_12_viv [\xbip_pipe_v3_0_12_viv(c_has_ce=...]
Compiling architecture rtl of entity floating_point_v7_1_22.delay [\delay(width=24,length=0,fast_in...]
Compiling architecture synth of entity xbip_pipe_v3_0_12.xbip_pipe_v3_0_12_viv [\xbip_pipe_v3_0_12_viv(c_has_ce=...]
Compiling architecture rtl of entity floating_point_v7_1_22.delay [\delay(width=16,length=0)\]
Compiling architecture dsp48e1_v of entity unisim.DSP48E1 [\DSP48E1(acascreg=0,adreg=0,alum...]
Compiling architecture synth of entity xbip_pipe_v3_0_12.xbip_pipe_v3_0_12_viv [\xbip_pipe_v3_0_12_viv(c_has_ce=...]
Compiling architecture rtl of entity floating_point_v7_1_22.delay [\delay(width=4,length=0)\]
Compiling architecture synth of entity xbip_pipe_v3_0_12.xbip_pipe_v3_0_12_viv [\xbip_pipe_v3_0_12_viv(c_has_ce=...]
Compiling architecture rtl of entity floating_point_v7_1_22.delay [\delay(width=48,length=0)\]
Compiling architecture synth of entity xbip_pipe_v3_0_12.xbip_pipe_v3_0_12_viv [\xbip_pipe_v3_0_12_viv(c_has_ce=...]
Compiling architecture rtl of entity floating_point_v7_1_22.delay [\delay(width=24,length=0)\]
Compiling architecture rtl of entity floating_point_v7_1_22.dsp48e1_wrapper [\dsp48e1_wrapper(c_part="xck26-s...]
Compiling architecture synth of entity xbip_pipe_v3_0_12.xbip_pipe_v3_0_12_viv [\xbip_pipe_v3_0_12_viv(c_latency...]
Compiling architecture rtl of entity floating_point_v7_1_22.delay [delay_default]
Compiling architecture synth of entity xbip_pipe_v3_0_12.xbip_pipe_v3_0_12_viv [\xbip_pipe_v3_0_12_viv(c_has_ce=...]
Compiling architecture rtl of entity floating_point_v7_1_22.delay [\delay(width=13,length=0)\]
Compiling architecture synth of entity xbip_pipe_v3_0_12.xbip_pipe_v3_0_12_viv [\xbip_pipe_v3_0_12_viv(c_has_ce=...]
Compiling architecture rtl of entity floating_point_v7_1_22.delay [\delay(width=27,length=0)\]
Compiling architecture synth of entity floating_point_v7_1_22.align_add_dsp48e1_sgl [\align_add_dsp48e1_sgl(c_xdevice...]
Compiling architecture lut5_v of entity unisim.LUT5 [\LUT5(init="00000000000000001111...]
Compiling architecture lut5_v of entity unisim.LUT5 [\LUT5(init="00000000000000000000...]
Compiling architecture synth of entity xbip_pipe_v3_0_12.xbip_pipe_v3_0_12_viv [\xbip_pipe_v3_0_12_viv(c_has_ce=...]
Compiling architecture rtl of entity floating_point_v7_1_22.delay [\delay(width=5,length=0)\]
Compiling architecture rtl of entity floating_point_v7_1_22.lead_zero_encode_shift [\lead_zero_encode_shift(ab_fw=24...]
Compiling architecture synth of entity xbip_pipe_v3_0_12.xbip_pipe_v3_0_12_viv [\xbip_pipe_v3_0_12_viv(c_has_ce=...]
Compiling architecture rtl of entity floating_point_v7_1_22.delay [\delay(width=3,length=0)\]
Compiling architecture lut6_v of entity unisim.LUT6 [\LUT6(init="11111110010101001011...]
Compiling architecture lut5_v of entity unisim.LUT5 [\LUT5(init="00010001010111110000...]
Compiling architecture lut5_v of entity unisim.LUT5 [\LUT5(init="11101110101000001111...]
Compiling architecture synth of entity xbip_pipe_v3_0_12.xbip_pipe_v3_0_12_viv [\xbip_pipe_v3_0_12_viv(c_latency...]
Compiling architecture rtl of entity floating_point_v7_1_22.delay [\delay(width=2)\]
Compiling architecture dsp48e1_v of entity unisim.DSP48E1 [\DSP48E1(adreg=0,alumodereg=0,ca...]
Compiling architecture synth of entity xbip_pipe_v3_0_12.xbip_pipe_v3_0_12_viv [\xbip_pipe_v3_0_12_viv(c_has_ce=...]
Compiling architecture rtl of entity floating_point_v7_1_22.delay [\delay(width=25,length=0)\]
Compiling architecture rtl of entity floating_point_v7_1_22.dsp48e1_wrapper [\dsp48e1_wrapper(a_width=24,c_wi...]
Compiling architecture rtl of entity floating_point_v7_1_22.norm_and_round_dsp48e1_sgl [\norm_and_round_dsp48e1_sgl(c_mu...]
Compiling architecture lut5_v of entity unisim.LUT5 [\LUT5(init="10011001100110011001...]
Compiling architecture lut5_v of entity unisim.LUT5 [\LUT5(init="11111111000000001111...]
Compiling architecture synth of entity xbip_pipe_v3_0_12.xbip_pipe_v3_0_12_viv [\xbip_pipe_v3_0_12_viv(c_has_ce=...]
Compiling architecture rtl of entity floating_point_v7_1_22.delay [\delay(width=9,length=0)\]
Compiling architecture struct of entity floating_point_v7_1_22.carry_chain [\carry_chain(c_xdevicefamily="zy...]
Compiling architecture synth of entity xbip_pipe_v3_0_12.xbip_pipe_v3_0_12_viv [\xbip_pipe_v3_0_12_viv(c_has_ce=...]
Compiling architecture rtl of entity floating_point_v7_1_22.delay [\delay(width=8,length=0)\]
Compiling architecture synth of entity xbip_pipe_v3_0_12.xbip_pipe_v3_0_12_viv [\xbip_pipe_v3_0_12_viv(c_latency...]
Compiling architecture rtl of entity floating_point_v7_1_22.delay [\delay(width=10)\]
Compiling architecture synth of entity xbip_pipe_v3_0_12.xbip_pipe_v3_0_12_viv [\xbip_pipe_v3_0_12_viv(c_has_ce=...]
Compiling architecture rtl of entity floating_point_v7_1_22.delay [\delay(width=4,length=0,fast_inp...]
Compiling architecture fdre_v of entity unisim.FDRE [fdre_default]
Compiling architecture fde_v of entity unisim.FDE [fde_default]
Compiling architecture struct of entity floating_point_v7_1_22.carry_chain [\carry_chain(c_xdevicefamily="zy...]
Compiling architecture synth of entity floating_point_v7_1_22.compare_eq_im [\compare_eq_im(c_xdevicefamily="...]
Compiling architecture synth of entity xbip_pipe_v3_0_12.xbip_pipe_v3_0_12_viv [\xbip_pipe_v3_0_12_viv(c_latency...]
Compiling architecture rtl of entity floating_point_v7_1_22.delay [\delay(fast_input=true)\]
Compiling architecture rtl of entity floating_point_v7_1_22.special_detect [\special_detect(c_xdevicefamily=...]
Compiling architecture struct of entity floating_point_v7_1_22.carry_chain [\carry_chain(c_xdevicefamily="zy...]
Compiling architecture synth of entity floating_point_v7_1_22.compare_gt [\compare_gt(c_xdevicefamily="zyn...]
Compiling architecture synth of entity floating_point_v7_1_22.compare [\compare(c_xdevicefamily="zynqup...]
Compiling architecture synth of entity xbip_pipe_v3_0_12.xbip_pipe_v3_0_12_viv [\xbip_pipe_v3_0_12_viv(c_latency...]
Compiling architecture rtl of entity floating_point_v7_1_22.delay [\delay(width=8)\]
Compiling architecture synth of entity xbip_pipe_v3_0_12.xbip_pipe_v3_0_12_viv [\xbip_pipe_v3_0_12_viv(c_latency...]
Compiling architecture rtl of entity floating_point_v7_1_22.delay [\delay(width=9)\]
Compiling architecture synth of entity xbip_pipe_v3_0_12.xbip_pipe_v3_0_12_viv [\xbip_pipe_v3_0_12_viv(c_latency...]
Compiling architecture rtl of entity floating_point_v7_1_22.delay [\delay(width=2,length=2,fast_inp...]
Compiling architecture synth of entity xbip_pipe_v3_0_12.xbip_pipe_v3_0_12_viv [\xbip_pipe_v3_0_12_viv(c_latency...]
Compiling architecture rtl of entity floating_point_v7_1_22.delay [\delay(length=2,fast_input=true)...]
Compiling architecture synth of entity xbip_pipe_v3_0_12.xbip_pipe_v3_0_12_viv [\xbip_pipe_v3_0_12_viv(c_has_ce=...]
Compiling architecture rtl of entity floating_point_v7_1_22.delay [\delay(length=0,fast_input=true)...]
Compiling architecture synth of entity xbip_pipe_v3_0_12.xbip_pipe_v3_0_12_viv [\xbip_pipe_v3_0_12_viv(c_has_ce=...]
Compiling architecture rtl of entity floating_point_v7_1_22.delay [\delay(width=2,length=0,fast_inp...]
Compiling architecture synth of entity xbip_pipe_v3_0_12.xbip_pipe_v3_0_12_viv [\xbip_pipe_v3_0_12_viv(c_has_ce=...]
Compiling architecture rtl of entity floating_point_v7_1_22.delay [\delay(width=12,length=0)\]
Compiling architecture rtl of entity floating_point_v7_1_22.flt_add_exp_sp [\flt_add_exp_sp(c_xdevicefamily=...]
Compiling architecture synth of entity xbip_pipe_v3_0_12.xbip_pipe_v3_0_12_viv [\xbip_pipe_v3_0_12_viv(c_latency...]
Compiling architecture rtl of entity floating_point_v7_1_22.delay [\delay(width=23)\]
Compiling architecture synth of entity floating_point_v7_1_22.flt_dec_op [\flt_dec_op(c_xdevicefamily="zyn...]
Compiling architecture rtl of entity floating_point_v7_1_22.flt_add_dsp [\flt_add_dsp(c_xdevicefamily="zy...]
Compiling architecture rtl of entity floating_point_v7_1_22.flt_add [\flt_add(c_xdevicefamily="zynqup...]
Compiling architecture synth of entity xbip_pipe_v3_0_12.xbip_pipe_v3_0_12_viv [\xbip_pipe_v3_0_12_viv(c_latency...]
Compiling architecture synth of entity xbip_pipe_v3_0_12.xbip_pipe_v3_0_12_viv [\xbip_pipe_v3_0_12_viv(c_has_ce=...]
Compiling architecture rtl of entity floating_point_v7_1_22.delay [\delay(width=32,length=0)\]
Compiling architecture xilinx of entity floating_point_v7_1_22.floating_point_v7_1_22_viv [\floating_point_v7_1_22_viv(c_xd...]
Compiling architecture xilinx of entity floating_point_v7_1_22.floating_point_v7_1_22 [\floating_point_v7_1_22(c_xdevic...]
Compiling architecture w4a8_linear_v1_fadd_32ns_32ns_32_6_full_dsp_1_ip_arch of entity xil_defaultlib.w4a8_linear_v1_fadd_32ns_32ns_32_6_full_dsp_1_ip [w4a8_linear_v1_fadd_32ns_32ns_32...]
Compiling module xil_defaultlib.w4a8_linear_v1_fadd_32ns_32ns_32...
Compiling architecture dsp48e1_v of entity unisim.DSP48E1 [\DSP48E1(acascreg=0,adreg=0,alum...]
Compiling architecture synth of entity xbip_pipe_v3_0_12.xbip_pipe_v3_0_12_viv [\xbip_pipe_v3_0_12_viv(c_has_ce=...]
Compiling architecture rtl of entity floating_point_v7_1_22.delay [\delay(width=17,length=0)\]
Compiling architecture rtl of entity floating_point_v7_1_22.dsp48e1_wrapper [\dsp48e1_wrapper(a_width=24,b_wi...]
Compiling architecture dsp48e1_v of entity unisim.DSP48E1 [\DSP48E1(acascreg=0,adreg=0,alum...]
Compiling architecture rtl of entity floating_point_v7_1_22.dsp48e1_wrapper [\dsp48e1_wrapper(a_width=24,b_wi...]
Compiling architecture struct of entity floating_point_v7_1_22.fix_mult_dsp48e1_sgl [\fix_mult_dsp48e1_sgl(registers=...]
Compiling architecture rtl of entity floating_point_v7_1_22.fix_mult [\fix_mult(c_xdevicefamily="zynqu...]
Compiling architecture synth of entity xbip_pipe_v3_0_12.xbip_pipe_v3_0_12_viv [\xbip_pipe_v3_0_12_viv(c_has_ce=...]
Compiling architecture rtl of entity floating_point_v7_1_22.delay [\delay(width=8,length=0,fast_inp...]
Compiling architecture struct of entity floating_point_v7_1_22.carry_chain [\carry_chain(c_xdevicefamily="zy...]
Compiling architecture struct of entity floating_point_v7_1_22.carry_chain [\carry_chain(c_xdevicefamily="zy...]
Compiling architecture synth of entity floating_point_v7_1_22.compare_eq_im [\compare_eq_im(c_xdevicefamily="...]
Compiling architecture rtl of entity floating_point_v7_1_22.special_detect [\special_detect(c_xdevicefamily=...]
Compiling architecture synth of entity xbip_pipe_v3_0_12.xbip_pipe_v3_0_12_viv [\xbip_pipe_v3_0_12_viv(c_latency...]
Compiling architecture rtl of entity floating_point_v7_1_22.delay [\delay(width=2,fast_input=true)\]
Compiling architecture synth of entity xbip_pipe_v3_0_12.xbip_pipe_v3_0_12_viv [\xbip_pipe_v3_0_12_viv(c_latency...]
Compiling architecture rtl of entity floating_point_v7_1_22.delay [\delay(width=4,fast_input=true)\]
Compiling architecture synth of entity xbip_pipe_v3_0_12.xbip_pipe_v3_0_12_viv [\xbip_pipe_v3_0_12_viv(c_has_ce=...]
Compiling architecture rtl of entity floating_point_v7_1_22.delay [\delay(width=3,length=0,fast_inp...]
Compiling architecture synth of entity xbip_pipe_v3_0_12.xbip_pipe_v3_0_12_viv [\xbip_pipe_v3_0_12_viv(c_has_ce=...]
Compiling architecture rtl of entity floating_point_v7_1_22.delay [\delay(width=14,length=0)\]
Compiling architecture rtl of entity floating_point_v7_1_22.flt_mult_exp [\flt_mult_exp(c_xdevicefamily="z...]
Compiling architecture dsp48e1_v of entity unisim.DSP48E1 [\DSP48E1(acascreg=0,adreg=0,alum...]
Compiling architecture synth of entity xbip_pipe_v3_0_12.xbip_pipe_v3_0_12_viv [\xbip_pipe_v3_0_12_viv(c_has_ce=...]
Compiling architecture rtl of entity floating_point_v7_1_22.delay [\delay(width=30,length=0)\]
Compiling architecture synth of entity xbip_pipe_v3_0_12.xbip_pipe_v3_0_12_viv [\xbip_pipe_v3_0_12_viv(c_has_ce=...]
Compiling architecture rtl of entity floating_point_v7_1_22.delay [\delay(width=18,length=0)\]
Compiling architecture rtl of entity floating_point_v7_1_22.dsp48e1_wrapper [\dsp48e1_wrapper(a_width=30,b_wi...]
Compiling architecture struct of entity floating_point_v7_1_22.flt_round_dsp_opt_full [\flt_round_dsp_opt_full(c_xdevic...]
Compiling architecture rtl of entity floating_point_v7_1_22.flt_mult_round [\flt_mult_round(c_xdevicefamily=...]
Compiling architecture synth of entity floating_point_v7_1_22.flt_dec_op_lat [\flt_dec_op_lat(c_xdevicefamily=...]
Compiling architecture rtl of entity floating_point_v7_1_22.flt_mult [\flt_mult(c_xdevicefamily="zynqu...]
Compiling architecture xilinx of entity floating_point_v7_1_22.floating_point_v7_1_22_viv [\floating_point_v7_1_22_viv(c_xd...]
Compiling architecture xilinx of entity floating_point_v7_1_22.floating_point_v7_1_22 [\floating_point_v7_1_22(c_xdevic...]
Compiling architecture w4a8_linear_v1_fmul_32ns_32ns_32_4_max_dsp_1_ip_arch of entity xil_defaultlib.w4a8_linear_v1_fmul_32ns_32ns_32_4_max_dsp_1_ip [w4a8_linear_v1_fmul_32ns_32ns_32...]
Compiling module xil_defaultlib.w4a8_linear_v1_fmul_32ns_32ns_32...
Compiling architecture synth of entity xbip_pipe_v3_0_12.xbip_pipe_v3_0_12_viv [\xbip_pipe_v3_0_12_viv(c_has_ce=...]
Compiling architecture rtl of entity floating_point_v7_1_22.delay [\delay(width=31,length=0)\]
Compiling architecture synth of entity xbip_pipe_v3_0_12.xbip_pipe_v3_0_12_viv [\xbip_pipe_v3_0_12_viv(c_latency...]
Compiling architecture rtl of entity floating_point_v7_1_22.delay [\delay(width=32)\]
Compiling architecture struct of entity floating_point_v7_1_22.carry_chain [\carry_chain(c_xdevicefamily="zy...]
Compiling architecture rtl of entity floating_point_v7_1_22.norm_zero_det [\norm_zero_det(data_width=7,norm...]
Compiling architecture rtl of entity floating_point_v7_1_22.mux4 [\mux4(c_xdevicefamily="zynquplus...]
Compiling architecture rtl of entity floating_point_v7_1_22.mux4 [\mux4(c_xdevicefamily="zynquplus...]
Compiling architecture struct of entity floating_point_v7_1_22.carry_chain [\carry_chain(c_xdevicefamily="zy...]
Compiling architecture rtl of entity floating_point_v7_1_22.lead_zero_encode [\lead_zero_encode(c_xdevicefamil...]
Compiling architecture rtl of entity floating_point_v7_1_22.shift_msb_first [\shift_msb_first(a_width=32,resu...]
Compiling architecture struct of entity floating_point_v7_1_22.carry_chain [\carry_chain(c_xdevicefamily="zy...]
Compiling architecture struct of entity floating_point_v7_1_22.carry_chain [\carry_chain(c_xdevicefamily="zy...]
Compiling architecture synth of entity xbip_pipe_v3_0_12.xbip_pipe_v3_0_12_viv [\xbip_pipe_v3_0_12_viv(c_has_ce=...]
Compiling architecture rtl of entity floating_point_v7_1_22.delay [\delay(width=2,length=0)\]
Compiling architecture struct of entity floating_point_v7_1_22.carry_chain [\carry_chain(c_xdevicefamily="zy...]
Compiling architecture rtl of entity floating_point_v7_1_22.flt_round_bit [\flt_round_bit(c_xdevicefamily="...]
Compiling architecture rtl of entity floating_point_v7_1_22.renorm_and_round_logic [\renorm_and_round_logic(c_xdevic...]
Compiling architecture synth of entity xbip_pipe_v3_0_12.xbip_pipe_v3_0_12_viv [\xbip_pipe_v3_0_12_viv(c_latency...]
Compiling architecture rtl of entity floating_point_v7_1_22.delay [\delay(length=2)\]
Compiling architecture synth of entity floating_point_v7_1_22.fix_to_flt_conv_exp [\fix_to_flt_conv_exp(c_xdevicefa...]
Compiling architecture struct of entity floating_point_v7_1_22.fix_to_flt_conv [\fix_to_flt_conv(c_xdevicefamily...]
Compiling architecture synth of entity xbip_pipe_v3_0_12.xbip_pipe_v3_0_12_viv [\xbip_pipe_v3_0_12_viv(c_latency...]
Compiling architecture xilinx of entity floating_point_v7_1_22.floating_point_v7_1_22_viv [\floating_point_v7_1_22_viv(c_xd...]
Compiling architecture xilinx of entity floating_point_v7_1_22.floating_point_v7_1_22 [\floating_point_v7_1_22(c_xdevic...]
Compiling architecture w4a8_linear_v1_sitofp_32ns_32_5_no_dsp_1_ip_arch of entity xil_defaultlib.w4a8_linear_v1_sitofp_32ns_32_5_no_dsp_1_ip [w4a8_linear_v1_sitofp_32ns_32_5_...]
Compiling module xil_defaultlib.w4a8_linear_v1_sitofp_32ns_32_5_...
Compiling module xil_defaultlib.w4a8_linear_v1_sparsemux_65_5_32...
Compiling module xil_defaultlib.w4a8_linear_v1_w4a8_linear_v1_Pi...
Compiling module xil_defaultlib.w4a8_linear_v1_w4a8_linear_v1_Pi...
Compiling module xil_defaultlib.w4a8_linear_v1_control_s_axi
Compiling module xil_defaultlib.w4a8_linear_v1_gmem_meta_m_axi_s...
Compiling module xil_defaultlib.w4a8_linear_v1_gmem_meta_m_axi_f...
Compiling module xil_defaultlib.w4a8_linear_v1_gmem_meta_m_axi_m...
Compiling module xil_defaultlib.w4a8_linear_v1_gmem_meta_m_axi_f...
Compiling module xil_defaultlib.w4a8_linear_v1_gmem_meta_m_axi_s...
Compiling module xil_defaultlib.w4a8_linear_v1_gmem_meta_m_axi_f...
Compiling module xil_defaultlib.w4a8_linear_v1_gmem_meta_m_axi_m...
Compiling module xil_defaultlib.w4a8_linear_v1_gmem_meta_m_axi_f...
Compiling module xil_defaultlib.w4a8_linear_v1_gmem_meta_m_axi_m...
Compiling module xil_defaultlib.w4a8_linear_v1_gmem_meta_m_axi_f...
Compiling module xil_defaultlib.w4a8_linear_v1_gmem_meta_m_axi_s...
Compiling module xil_defaultlib.w4a8_linear_v1_gmem_meta_m_axi_m...
Compiling module xil_defaultlib.w4a8_linear_v1_gmem_meta_m_axi_f...
Compiling module xil_defaultlib.w4a8_linear_v1_gmem_meta_m_axi_l...
Compiling module xil_defaultlib.w4a8_linear_v1_gmem_meta_m_axi_r...
Compiling module xil_defaultlib.w4a8_linear_v1_gmem_meta_m_axi_b...
Compiling module xil_defaultlib.w4a8_linear_v1_gmem_meta_m_axi_b...
Compiling module xil_defaultlib.w4a8_linear_v1_gmem_meta_m_axi_r...
Compiling module xil_defaultlib.w4a8_linear_v1_gmem_meta_m_axi_s...
Compiling module xil_defaultlib.w4a8_linear_v1_gmem_meta_m_axi_f...
Compiling module xil_defaultlib.w4a8_linear_v1_gmem_meta_m_axi_r...
Compiling module xil_defaultlib.w4a8_linear_v1_gmem_meta_m_axi_t...
Compiling module xil_defaultlib.w4a8_linear_v1_gmem_meta_m_axi_r...
Compiling module xil_defaultlib.w4a8_linear_v1_gmem_meta_m_axi_s...
Compiling module xil_defaultlib.w4a8_linear_v1_gmem_meta_m_axi_f...
Compiling module xil_defaultlib.w4a8_linear_v1_gmem_meta_m_axi_w...
Compiling module xil_defaultlib.w4a8_linear_v1_gmem_meta_m_axi_r...
Compiling module xil_defaultlib.w4a8_linear_v1_gmem_meta_m_axi_r...
Compiling module xil_defaultlib.w4a8_linear_v1_gmem_meta_m_axi(C...
Compiling module xil_defaultlib.w4a8_linear_v1_gmem_sw_m_axi_srl...
Compiling module xil_defaultlib.w4a8_linear_v1_gmem_sw_m_axi_fif...
Compiling module xil_defaultlib.w4a8_linear_v1_gmem_sw_m_axi_mem...
Compiling module xil_defaultlib.w4a8_linear_v1_gmem_sw_m_axi_fif...
Compiling module xil_defaultlib.w4a8_linear_v1_gmem_sw_m_axi_loa...
Compiling module xil_defaultlib.w4a8_linear_v1_gmem_sw_m_axi_reg...
Compiling module xil_defaultlib.w4a8_linear_v1_gmem_sw_m_axi_bur...
Compiling module xil_defaultlib.w4a8_linear_v1_gmem_sw_m_axi_bur...
Compiling module xil_defaultlib.w4a8_linear_v1_gmem_sw_m_axi_reg...
Compiling module xil_defaultlib.w4a8_linear_v1_gmem_sw_m_axi_srl...
Compiling module xil_defaultlib.w4a8_linear_v1_gmem_sw_m_axi_fif...
Compiling module xil_defaultlib.w4a8_linear_v1_gmem_sw_m_axi_rea...
Compiling module xil_defaultlib.w4a8_linear_v1_gmem_sw_m_axi(C_M...
Compiling module xil_defaultlib.w4a8_linear_v1_gmem_w_m_axi_srl(...
Compiling module xil_defaultlib.w4a8_linear_v1_gmem_w_m_axi_fifo...
Compiling module xil_defaultlib.w4a8_linear_v1_gmem_w_m_axi_mem(...
Compiling module xil_defaultlib.w4a8_linear_v1_gmem_w_m_axi_fifo...
Compiling module xil_defaultlib.w4a8_linear_v1_gmem_w_m_axi_load...
Compiling module xil_defaultlib.w4a8_linear_v1_gmem_w_m_axi_reg_...
Compiling module xil_defaultlib.w4a8_linear_v1_gmem_w_m_axi_burs...
Compiling module xil_defaultlib.w4a8_linear_v1_gmem_w_m_axi_burs...
Compiling module xil_defaultlib.w4a8_linear_v1_gmem_w_m_axi_reg_...
Compiling module xil_defaultlib.w4a8_linear_v1_gmem_w_m_axi_srl(...
Compiling module xil_defaultlib.w4a8_linear_v1_gmem_w_m_axi_fifo...
Compiling module xil_defaultlib.w4a8_linear_v1_gmem_w_m_axi_read...
Compiling module xil_defaultlib.w4a8_linear_v1_gmem_w_m_axi(C_M_...
Compiling module xil_defaultlib.w4a8_linear_v1_gmem_x_m_axi_srl(...
Compiling module xil_defaultlib.w4a8_linear_v1_gmem_x_m_axi_fifo...
Compiling module xil_defaultlib.w4a8_linear_v1_gmem_x_m_axi_mem(...
Compiling module xil_defaultlib.w4a8_linear_v1_gmem_x_m_axi_fifo...
Compiling module xil_defaultlib.w4a8_linear_v1_gmem_x_m_axi_load...
Compiling module xil_defaultlib.w4a8_linear_v1_gmem_x_m_axi_reg_...
Compiling module xil_defaultlib.w4a8_linear_v1_gmem_x_m_axi_burs...
Compiling module xil_defaultlib.w4a8_linear_v1_gmem_x_m_axi_burs...
Compiling module xil_defaultlib.w4a8_linear_v1_gmem_x_m_axi_reg_...
Compiling module xil_defaultlib.w4a8_linear_v1_gmem_x_m_axi_srl(...
Compiling module xil_defaultlib.w4a8_linear_v1_gmem_x_m_axi_fifo...
Compiling module xil_defaultlib.w4a8_linear_v1_gmem_x_m_axi_read...
Compiling module xil_defaultlib.w4a8_linear_v1_gmem_x_m_axi(C_M_...
Compiling module xil_defaultlib.w4a8_linear_v1_gmem_y_m_axi_srl(...
Compiling module xil_defaultlib.w4a8_linear_v1_gmem_y_m_axi_fifo...
Compiling module xil_defaultlib.w4a8_linear_v1_gmem_y_m_axi_mem(...
Compiling module xil_defaultlib.w4a8_linear_v1_gmem_y_m_axi_fifo...
Compiling module xil_defaultlib.w4a8_linear_v1_gmem_y_m_axi_mem(...
Compiling module xil_defaultlib.w4a8_linear_v1_gmem_y_m_axi_fifo...
Compiling module xil_defaultlib.w4a8_linear_v1_gmem_y_m_axi_mem(...
Compiling module xil_defaultlib.w4a8_linear_v1_gmem_y_m_axi_fifo...
Compiling module xil_defaultlib.w4a8_linear_v1_gmem_y_m_axi_mem(...
Compiling module xil_defaultlib.w4a8_linear_v1_gmem_y_m_axi_fifo...
Compiling module xil_defaultlib.w4a8_linear_v1_gmem_y_m_axi_stor...
Compiling module xil_defaultlib.w4a8_linear_v1_gmem_y_m_axi_reg_...
Compiling module xil_defaultlib.w4a8_linear_v1_gmem_y_m_axi_burs...
Compiling module xil_defaultlib.w4a8_linear_v1_gmem_y_m_axi_burs...
Compiling module xil_defaultlib.w4a8_linear_v1_gmem_y_m_axi_reg_...
Compiling module xil_defaultlib.w4a8_linear_v1_gmem_y_m_axi_srl(...
Compiling module xil_defaultlib.w4a8_linear_v1_gmem_y_m_axi_fifo...
Compiling module xil_defaultlib.w4a8_linear_v1_gmem_y_m_axi_reg_...
Compiling module xil_defaultlib.w4a8_linear_v1_gmem_y_m_axi_thro...
Compiling module xil_defaultlib.w4a8_linear_v1_gmem_y_m_axi_reg_...
Compiling module xil_defaultlib.w4a8_linear_v1_gmem_y_m_axi_srl(...
Compiling module xil_defaultlib.w4a8_linear_v1_gmem_y_m_axi_fifo...
Compiling module xil_defaultlib.w4a8_linear_v1_gmem_y_m_axi_writ...
Compiling module xil_defaultlib.w4a8_linear_v1_gmem_y_m_axi(C_M_...
Compiling module xil_defaultlib.w4a8_linear_v1_mul_32ns_25ns_57_...
Compiling module xil_defaultlib.w4a8_linear_v1_mul_32ns_32ns_62_...
Compiling module xil_defaultlib.w4a8_linear_v1_mul_32ns_32ns_64_...
Compiling module xil_defaultlib.w4a8_linear_v1
Compiling module xil_defaultlib.misc_interface_default
Compiling module xil_defaultlib.axi_if(ADDR_WIDTH=64,STRB_WIDTH=...
Compiling module xil_defaultlib.axi_if(ADDR_WIDTH=64,STRB_WIDTH=...
Compiling module xil_defaultlib.axi_if(ADDR_WIDTH=64,STRB_WIDTH=...
Compiling module xil_defaultlib.axi_if(ADDR_WIDTH=8,STRB_WIDTH=4...
Compiling module xil_defaultlib.sv_module_top
Compiling module xil_defaultlib.nodf_module_intf_default
Compiling module xil_defaultlib.seq_loop_intf(FSM_WIDTH=241)
Compiling module xil_defaultlib.seq_loop_intf(FSM_WIDTH=78)
Compiling module xil_defaultlib.upc_loop_intf(FSM_WIDTH=1)
Compiling module xil_defaultlib.dataflow_monitor_1
Compiling module xil_defaultlib.apatb_w4a8_linear_v1_top
Compiling module xil_defaultlib.glbl
Built simulation snapshot w4a8_linear_v1

****** xsim v2026.1 (64-bit)
  **** SW Build 6511674 on Tue Jun 16 11:02:23 MDT 2026
  **** IP Build 6504888 on Tue Jun 09 09:05:25 MDT 2026
  **** SharedData Build 6501428 on Mon Jun 08 17:34:18 MDT 2026
  **** Start of session at: Fri Oct  2 22:07:33 2026
    ** Copyright 1986-2022 Xilinx, Inc. All Rights Reserved.
    ** Copyright 2022-2026 Advanced Micro Devices, Inc. All Rights Reserved.

source xsim.dir/w4a8_linear_v1/xsim_script.tcl
# xsim {w4a8_linear_v1} -testplusarg UVM_VERBOSITY=UVM_NONE -testplusarg UVM_TESTNAME=w4a8_linear_v1_test_lib -testplusarg UVM_TIMEOUT=20000000000000 -view {{w4a8_linear_v1_dataflow_ana.wcfg}} -tclbatch {w4a8_linear_v1.tcl} -protoinst {w4a8_linear_v1.protoinst}
INFO: [Wavedata 42-565] Reading protoinst file w4a8_linear_v1.protoinst
INFO: [Wavedata 42-564]   Found protocol instance at /apatb_w4a8_linear_v1_top/AESL_inst_w4a8_linear_v1//AESL_inst_w4a8_linear_v1_activity
INFO: [Wavedata 42-564]   Found protocol instance at /apatb_w4a8_linear_v1_top/AESL_inst_w4a8_linear_v1/grp_p_anonymous_namespace_contains_invalid_w4_fu_515/grp_p_anonymous_namespace_contains_invalid_w4_Pipeline_VITIS_LOOP_105_3_fu_241/grp_p_anonymous_namespace_contains_invalid_w4_Pipeline_VITIS_LOOP_105_3_fu_241_activity
INFO: [Wavedata 42-564]   Found protocol instance at /apatb_w4a8_linear_v1_top/AESL_inst_w4a8_linear_v1/grp_p_anonymous_namespace_contains_invalid_w4_fu_515/grp_p_anonymous_namespace_contains_invalid_w4_Pipeline_VITIS_LOOP_51_1_fu_233/grp_p_anonymous_namespace_contains_invalid_w4_Pipeline_VITIS_LOOP_51_1_fu_233_activity
INFO: [Wavedata 42-564]   Found protocol instance at /apatb_w4a8_linear_v1_top/AESL_inst_w4a8_linear_v1/grp_p_anonymous_namespace_contains_invalid_w4_fu_515/grp_p_anonymous_namespace_contains_invalid_w4_fu_515_activity
INFO: [Wavedata 42-564]   Found protocol instance at /apatb_w4a8_linear_v1_top/AESL_inst_w4a8_linear_v1/grp_p_anonymous_namespace_write_meta_fu_492/grp_p_anonymous_namespace_write_meta_fu_492_activity
INFO: [Wavedata 42-564]   Found protocol instance at /apatb_w4a8_linear_v1_top/AESL_inst_w4a8_linear_v1/grp_w4a8_linear_v1_Pipeline_VITIS_LOOP_428_2_fu_525/grp_w4a8_linear_v1_Pipeline_VITIS_LOOP_428_2_fu_525_activity
INFO: [Wavedata 42-564]   Found protocol instance at /apatb_w4a8_linear_v1_top/AESL_inst_w4a8_linear_v1/grp_w4a8_linear_v1_Pipeline_VITIS_LOOP_438_4_fu_534/grp_w4a8_linear_v1_Pipeline_VITIS_LOOP_438_4_fu_534_activity
INFO: [Wavedata 42-564]   Found protocol instance at /apatb_w4a8_linear_v1_top/AESL_inst_w4a8_linear_v1/grp_w4a8_linear_v1_Pipeline_VITIS_LOOP_469_6_fu_547/grp_w4a8_linear_v1_Pipeline_VITIS_LOOP_469_6_fu_547_activity
INFO: [Wavedata 42-564]   Found protocol instance at /apatb_w4a8_linear_v1_top/AESL_inst_w4a8_linear_v1/grp_w4a8_linear_v1_Pipeline_VITIS_LOOP_486_7_fu_569/grp_w4a8_linear_v1_Pipeline_VITIS_LOOP_486_7_fu_569_activity
INFO: [Wavedata 42-564]   Found protocol instance at /apatb_w4a8_linear_v1_top/AESL_inst_w4a8_linear_v1/grp_w4a8_linear_v1_Pipeline_VITIS_LOOP_500_8_fu_555/grp_w4a8_linear_v1_Pipeline_VITIS_LOOP_500_8_fu_555_activity
INFO: [Wavedata 42-564]   Found protocol instance at /apatb_w4a8_linear_v1_top/AESL_inst_w4a8_linear_v1/grp_w4a8_linear_v1_Pipeline_VITIS_LOOP_510_9_fu_608/grp_w4a8_linear_v1_Pipeline_VITIS_LOOP_510_9_fu_608_activity
INFO: [Wavedata 42-564]   Found protocol instance at /apatb_w4a8_linear_v1_top/AESL_inst_w4a8_linear_v1/grp_w4a8_linear_v1_Pipeline_VITIS_LOOP_51_1_fu_539/grp_w4a8_linear_v1_Pipeline_VITIS_LOOP_51_1_fu_539_activity
INFO: [Wavedata 42-564]   Found protocol instance at /apatb_w4a8_linear_v1_top/AESL_inst_w4a8_linear_v1/grp_w4a8_tile_group_sums_fu_562/grp_w4a8_tile_group_sums_fu_562_activity
Time resolution is 1 ps
open_wave_config w4a8_linear_v1_dataflow_ana.wcfg
source w4a8_linear_v1.tcl
## log_wave [get_objects -filter {type == in_port || type == out_port || type == inout_port || type == port} /apatb_w4a8_linear_v1_top/AESL_inst_w4a8_linear_v1/*]
## set designtopgroup [add_wave_group "Design Top Signals"]
## set cinoutgroup [add_wave_group "C InOuts" -into $designtopgroup]
## set meta_group [add_wave_group meta(axi_master) -into $cinoutgroup]
## set rdata_group [add_wave_group "Read Channel" -into $meta_group]
## set wdata_group [add_wave_group "Write Channel" -into $meta_group]
## set ctrl_group [add_wave_group "Handshakes" -into $meta_group]
## add_wave /apatb_w4a8_linear_v1_top/AESL_inst_w4a8_linear_v1/m_axi_gmem_meta_BUSER -into $wdata_group -radix hex
## add_wave /apatb_w4a8_linear_v1_top/AESL_inst_w4a8_linear_v1/m_axi_gmem_meta_BID -into $wdata_group -radix hex
## add_wave /apatb_w4a8_linear_v1_top/AESL_inst_w4a8_linear_v1/m_axi_gmem_meta_BRESP -into $wdata_group -radix hex
## add_wave /apatb_w4a8_linear_v1_top/AESL_inst_w4a8_linear_v1/m_axi_gmem_meta_BREADY -into $ctrl_group -color #ffff00 -radix hex
## add_wave /apatb_w4a8_linear_v1_top/AESL_inst_w4a8_linear_v1/m_axi_gmem_meta_BVALID -into $ctrl_group -color #ffff00 -radix hex
## add_wave /apatb_w4a8_linear_v1_top/AESL_inst_w4a8_linear_v1/m_axi_gmem_meta_RRESP -into $rdata_group -radix hex
## add_wave /apatb_w4a8_linear_v1_top/AESL_inst_w4a8_linear_v1/m_axi_gmem_meta_RUSER -into $rdata_group -radix hex
## add_wave /apatb_w4a8_linear_v1_top/AESL_inst_w4a8_linear_v1/m_axi_gmem_meta_RID -into $rdata_group -radix hex
## add_wave /apatb_w4a8_linear_v1_top/AESL_inst_w4a8_linear_v1/m_axi_gmem_meta_RLAST -into $ctrl_group -color #ffff00 -radix hex
## add_wave /apatb_w4a8_linear_v1_top/AESL_inst_w4a8_linear_v1/m_axi_gmem_meta_RDATA -into $rdata_group -radix hex
## add_wave /apatb_w4a8_linear_v1_top/AESL_inst_w4a8_linear_v1/m_axi_gmem_meta_RREADY -into $ctrl_group -color #ffff00 -radix hex
## add_wave /apatb_w4a8_linear_v1_top/AESL_inst_w4a8_linear_v1/m_axi_gmem_meta_RVALID -into $ctrl_group -color #ffff00 -radix hex
## add_wave /apatb_w4a8_linear_v1_top/AESL_inst_w4a8_linear_v1/m_axi_gmem_meta_ARUSER -into $rdata_group -radix hex
## add_wave /apatb_w4a8_linear_v1_top/AESL_inst_w4a8_linear_v1/m_axi_gmem_meta_ARREGION -into $rdata_group -radix hex
## add_wave /apatb_w4a8_linear_v1_top/AESL_inst_w4a8_linear_v1/m_axi_gmem_meta_ARQOS -into $rdata_group -radix hex
## add_wave /apatb_w4a8_linear_v1_top/AESL_inst_w4a8_linear_v1/m_axi_gmem_meta_ARPROT -into $rdata_group -radix hex
## add_wave /apatb_w4a8_linear_v1_top/AESL_inst_w4a8_linear_v1/m_axi_gmem_meta_ARCACHE -into $rdata_group -radix hex
## add_wave /apatb_w4a8_linear_v1_top/AESL_inst_w4a8_linear_v1/m_axi_gmem_meta_ARLOCK -into $rdata_group -radix hex
## add_wave /apatb_w4a8_linear_v1_top/AESL_inst_w4a8_linear_v1/m_axi_gmem_meta_ARBURST -into $rdata_group -radix hex
## add_wave /apatb_w4a8_linear_v1_top/AESL_inst_w4a8_linear_v1/m_axi_gmem_meta_ARSIZE -into $rdata_group -radix hex
## add_wave /apatb_w4a8_linear_v1_top/AESL_inst_w4a8_linear_v1/m_axi_gmem_meta_ARLEN -into $rdata_group -radix hex
## add_wave /apatb_w4a8_linear_v1_top/AESL_inst_w4a8_linear_v1/m_axi_gmem_meta_ARID -into $rdata_group -radix hex
## add_wave /apatb_w4a8_linear_v1_top/AESL_inst_w4a8_linear_v1/m_axi_gmem_meta_ARADDR -into $rdata_group -radix hex
## add_wave /apatb_w4a8_linear_v1_top/AESL_inst_w4a8_linear_v1/m_axi_gmem_meta_ARREADY -into $ctrl_group -color #ffff00 -radix hex
## add_wave /apatb_w4a8_linear_v1_top/AESL_inst_w4a8_linear_v1/m_axi_gmem_meta_ARVALID -into $ctrl_group -color #ffff00 -radix hex
## add_wave /apatb_w4a8_linear_v1_top/AESL_inst_w4a8_linear_v1/m_axi_gmem_meta_WUSER -into $wdata_group -radix hex
## add_wave /apatb_w4a8_linear_v1_top/AESL_inst_w4a8_linear_v1/m_axi_gmem_meta_WID -into $wdata_group -radix hex
## add_wave /apatb_w4a8_linear_v1_top/AESL_inst_w4a8_linear_v1/m_axi_gmem_meta_WLAST -into $ctrl_group -color #ffff00 -radix hex
## add_wave /apatb_w4a8_linear_v1_top/AESL_inst_w4a8_linear_v1/m_axi_gmem_meta_WSTRB -into $wdata_group -radix hex
## add_wave /apatb_w4a8_linear_v1_top/AESL_inst_w4a8_linear_v1/m_axi_gmem_meta_WDATA -into $wdata_group -radix hex
## add_wave /apatb_w4a8_linear_v1_top/AESL_inst_w4a8_linear_v1/m_axi_gmem_meta_WREADY -into $ctrl_group -color #ffff00 -radix hex
## add_wave /apatb_w4a8_linear_v1_top/AESL_inst_w4a8_linear_v1/m_axi_gmem_meta_WVALID -into $ctrl_group -color #ffff00 -radix hex
## add_wave /apatb_w4a8_linear_v1_top/AESL_inst_w4a8_linear_v1/m_axi_gmem_meta_AWUSER -into $wdata_group -radix hex
## add_wave /apatb_w4a8_linear_v1_top/AESL_inst_w4a8_linear_v1/m_axi_gmem_meta_AWREGION -into $wdata_group -radix hex
## add_wave /apatb_w4a8_linear_v1_top/AESL_inst_w4a8_linear_v1/m_axi_gmem_meta_AWQOS -into $wdata_group -radix hex
## add_wave /apatb_w4a8_linear_v1_top/AESL_inst_w4a8_linear_v1/m_axi_gmem_meta_AWPROT -into $wdata_group -radix hex
## add_wave /apatb_w4a8_linear_v1_top/AESL_inst_w4a8_linear_v1/m_axi_gmem_meta_AWCACHE -into $wdata_group -radix hex
## add_wave /apatb_w4a8_linear_v1_top/AESL_inst_w4a8_linear_v1/m_axi_gmem_meta_AWLOCK -into $wdata_group -radix hex
## add_wave /apatb_w4a8_linear_v1_top/AESL_inst_w4a8_linear_v1/m_axi_gmem_meta_AWBURST -into $wdata_group -radix hex
## add_wave /apatb_w4a8_linear_v1_top/AESL_inst_w4a8_linear_v1/m_axi_gmem_meta_AWSIZE -into $wdata_group -radix hex
## add_wave /apatb_w4a8_linear_v1_top/AESL_inst_w4a8_linear_v1/m_axi_gmem_meta_AWLEN -into $wdata_group -radix hex
## add_wave /apatb_w4a8_linear_v1_top/AESL_inst_w4a8_linear_v1/m_axi_gmem_meta_AWID -into $wdata_group -radix hex
## add_wave /apatb_w4a8_linear_v1_top/AESL_inst_w4a8_linear_v1/m_axi_gmem_meta_AWADDR -into $wdata_group -radix hex
## add_wave /apatb_w4a8_linear_v1_top/AESL_inst_w4a8_linear_v1/m_axi_gmem_meta_AWREADY -into $ctrl_group -color #ffff00 -radix hex
## add_wave /apatb_w4a8_linear_v1_top/AESL_inst_w4a8_linear_v1/m_axi_gmem_meta_AWVALID -into $ctrl_group -color #ffff00 -radix hex
## set w_packed__sw__xq__sx__y__meta__t__n__k__w_bytes__sw_bytes__x_bytes__sx_bytes__y_bytes__meta_bytes__job_id__abi_version__return_group [add_wave_group w_packed__sw__xq__sx__y__meta__t__n__k__w_bytes__sw_bytes__x_bytes__sx_bytes__y_bytes__meta_bytes__job_id__abi_version__return(axi_slave) -into $cinoutgroup]
## add_wave /apatb_w4a8_linear_v1_top/AESL_inst_w4a8_linear_v1/interrupt -into $w_packed__sw__xq__sx__y__meta__t__n__k__w_bytes__sw_bytes__x_bytes__sx_bytes__y_bytes__meta_bytes__job_id__abi_version__return_group -color #ffff00 -radix hex
## add_wave /apatb_w4a8_linear_v1_top/AESL_inst_w4a8_linear_v1/s_axi_control_BRESP -into $w_packed__sw__xq__sx__y__meta__t__n__k__w_bytes__sw_bytes__x_bytes__sx_bytes__y_bytes__meta_bytes__job_id__abi_version__return_group -radix hex
## add_wave /apatb_w4a8_linear_v1_top/AESL_inst_w4a8_linear_v1/s_axi_control_BREADY -into $w_packed__sw__xq__sx__y__meta__t__n__k__w_bytes__sw_bytes__x_bytes__sx_bytes__y_bytes__meta_bytes__job_id__abi_version__return_group -color #ffff00 -radix hex
## add_wave /apatb_w4a8_linear_v1_top/AESL_inst_w4a8_linear_v1/s_axi_control_BVALID -into $w_packed__sw__xq__sx__y__meta__t__n__k__w_bytes__sw_bytes__x_bytes__sx_bytes__y_bytes__meta_bytes__job_id__abi_version__return_group -color #ffff00 -radix hex
## add_wave /apatb_w4a8_linear_v1_top/AESL_inst_w4a8_linear_v1/s_axi_control_RRESP -into $w_packed__sw__xq__sx__y__meta__t__n__k__w_bytes__sw_bytes__x_bytes__sx_bytes__y_bytes__meta_bytes__job_id__abi_version__return_group -radix hex
## add_wave /apatb_w4a8_linear_v1_top/AESL_inst_w4a8_linear_v1/s_axi_control_RDATA -into $w_packed__sw__xq__sx__y__meta__t__n__k__w_bytes__sw_bytes__x_bytes__sx_bytes__y_bytes__meta_bytes__job_id__abi_version__return_group -radix hex
## add_wave /apatb_w4a8_linear_v1_top/AESL_inst_w4a8_linear_v1/s_axi_control_RREADY -into $w_packed__sw__xq__sx__y__meta__t__n__k__w_bytes__sw_bytes__x_bytes__sx_bytes__y_bytes__meta_bytes__job_id__abi_version__return_group -color #ffff00 -radix hex
## add_wave /apatb_w4a8_linear_v1_top/AESL_inst_w4a8_linear_v1/s_axi_control_RVALID -into $w_packed__sw__xq__sx__y__meta__t__n__k__w_bytes__sw_bytes__x_bytes__sx_bytes__y_bytes__meta_bytes__job_id__abi_version__return_group -color #ffff00 -radix hex
## add_wave /apatb_w4a8_linear_v1_top/AESL_inst_w4a8_linear_v1/s_axi_control_ARREADY -into $w_packed__sw__xq__sx__y__meta__t__n__k__w_bytes__sw_bytes__x_bytes__sx_bytes__y_bytes__meta_bytes__job_id__abi_version__return_group -color #ffff00 -radix hex
## add_wave /apatb_w4a8_linear_v1_top/AESL_inst_w4a8_linear_v1/s_axi_control_ARVALID -into $w_packed__sw__xq__sx__y__meta__t__n__k__w_bytes__sw_bytes__x_bytes__sx_bytes__y_bytes__meta_bytes__job_id__abi_version__return_group -color #ffff00 -radix hex
## add_wave /apatb_w4a8_linear_v1_top/AESL_inst_w4a8_linear_v1/s_axi_control_ARADDR -into $w_packed__sw__xq__sx__y__meta__t__n__k__w_bytes__sw_bytes__x_bytes__sx_bytes__y_bytes__meta_bytes__job_id__abi_version__return_group -radix hex
## add_wave /apatb_w4a8_linear_v1_top/AESL_inst_w4a8_linear_v1/s_axi_control_WSTRB -into $w_packed__sw__xq__sx__y__meta__t__n__k__w_bytes__sw_bytes__x_bytes__sx_bytes__y_bytes__meta_bytes__job_id__abi_version__return_group -radix hex
## add_wave /apatb_w4a8_linear_v1_top/AESL_inst_w4a8_linear_v1/s_axi_control_WDATA -into $w_packed__sw__xq__sx__y__meta__t__n__k__w_bytes__sw_bytes__x_bytes__sx_bytes__y_bytes__meta_bytes__job_id__abi_version__return_group -radix hex
## add_wave /apatb_w4a8_linear_v1_top/AESL_inst_w4a8_linear_v1/s_axi_control_WREADY -into $w_packed__sw__xq__sx__y__meta__t__n__k__w_bytes__sw_bytes__x_bytes__sx_bytes__y_bytes__meta_bytes__job_id__abi_version__return_group -color #ffff00 -radix hex
## add_wave /apatb_w4a8_linear_v1_top/AESL_inst_w4a8_linear_v1/s_axi_control_WVALID -into $w_packed__sw__xq__sx__y__meta__t__n__k__w_bytes__sw_bytes__x_bytes__sx_bytes__y_bytes__meta_bytes__job_id__abi_version__return_group -color #ffff00 -radix hex
## add_wave /apatb_w4a8_linear_v1_top/AESL_inst_w4a8_linear_v1/s_axi_control_AWREADY -into $w_packed__sw__xq__sx__y__meta__t__n__k__w_bytes__sw_bytes__x_bytes__sx_bytes__y_bytes__meta_bytes__job_id__abi_version__return_group -color #ffff00 -radix hex
## add_wave /apatb_w4a8_linear_v1_top/AESL_inst_w4a8_linear_v1/s_axi_control_AWVALID -into $w_packed__sw__xq__sx__y__meta__t__n__k__w_bytes__sw_bytes__x_bytes__sx_bytes__y_bytes__meta_bytes__job_id__abi_version__return_group -color #ffff00 -radix hex
## add_wave /apatb_w4a8_linear_v1_top/AESL_inst_w4a8_linear_v1/s_axi_control_AWADDR -into $w_packed__sw__xq__sx__y__meta__t__n__k__w_bytes__sw_bytes__x_bytes__sx_bytes__y_bytes__meta_bytes__job_id__abi_version__return_group -radix hex
## set coutputgroup [add_wave_group "C Outputs" -into $designtopgroup]
## set y_group [add_wave_group y(axi_master) -into $coutputgroup]
## set rdata_group [add_wave_group "Read Channel" -into $y_group]
## set wdata_group [add_wave_group "Write Channel" -into $y_group]
## set ctrl_group [add_wave_group "Handshakes" -into $y_group]
## add_wave /apatb_w4a8_linear_v1_top/AESL_inst_w4a8_linear_v1/m_axi_gmem_y_BUSER -into $wdata_group -radix hex
## add_wave /apatb_w4a8_linear_v1_top/AESL_inst_w4a8_linear_v1/m_axi_gmem_y_BID -into $wdata_group -radix hex
## add_wave /apatb_w4a8_linear_v1_top/AESL_inst_w4a8_linear_v1/m_axi_gmem_y_BRESP -into $wdata_group -radix hex
## add_wave /apatb_w4a8_linear_v1_top/AESL_inst_w4a8_linear_v1/m_axi_gmem_y_BREADY -into $ctrl_group -color #ffff00 -radix hex
## add_wave /apatb_w4a8_linear_v1_top/AESL_inst_w4a8_linear_v1/m_axi_gmem_y_BVALID -into $ctrl_group -color #ffff00 -radix hex
## add_wave /apatb_w4a8_linear_v1_top/AESL_inst_w4a8_linear_v1/m_axi_gmem_y_RRESP -into $rdata_group -radix hex
## add_wave /apatb_w4a8_linear_v1_top/AESL_inst_w4a8_linear_v1/m_axi_gmem_y_RUSER -into $rdata_group -radix hex
## add_wave /apatb_w4a8_linear_v1_top/AESL_inst_w4a8_linear_v1/m_axi_gmem_y_RID -into $rdata_group -radix hex
## add_wave /apatb_w4a8_linear_v1_top/AESL_inst_w4a8_linear_v1/m_axi_gmem_y_RLAST -into $ctrl_group -color #ffff00 -radix hex
## add_wave /apatb_w4a8_linear_v1_top/AESL_inst_w4a8_linear_v1/m_axi_gmem_y_RDATA -into $rdata_group -radix hex
## add_wave /apatb_w4a8_linear_v1_top/AESL_inst_w4a8_linear_v1/m_axi_gmem_y_RREADY -into $ctrl_group -color #ffff00 -radix hex
## add_wave /apatb_w4a8_linear_v1_top/AESL_inst_w4a8_linear_v1/m_axi_gmem_y_RVALID -into $ctrl_group -color #ffff00 -radix hex
## add_wave /apatb_w4a8_linear_v1_top/AESL_inst_w4a8_linear_v1/m_axi_gmem_y_ARUSER -into $rdata_group -radix hex
## add_wave /apatb_w4a8_linear_v1_top/AESL_inst_w4a8_linear_v1/m_axi_gmem_y_ARREGION -into $rdata_group -radix hex
## add_wave /apatb_w4a8_linear_v1_top/AESL_inst_w4a8_linear_v1/m_axi_gmem_y_ARQOS -into $rdata_group -radix hex
## add_wave /apatb_w4a8_linear_v1_top/AESL_inst_w4a8_linear_v1/m_axi_gmem_y_ARPROT -into $rdata_group -radix hex
## add_wave /apatb_w4a8_linear_v1_top/AESL_inst_w4a8_linear_v1/m_axi_gmem_y_ARCACHE -into $rdata_group -radix hex
## add_wave /apatb_w4a8_linear_v1_top/AESL_inst_w4a8_linear_v1/m_axi_gmem_y_ARLOCK -into $rdata_group -radix hex
## add_wave /apatb_w4a8_linear_v1_top/AESL_inst_w4a8_linear_v1/m_axi_gmem_y_ARBURST -into $rdata_group -radix hex
## add_wave /apatb_w4a8_linear_v1_top/AESL_inst_w4a8_linear_v1/m_axi_gmem_y_ARSIZE -into $rdata_group -radix hex
## add_wave /apatb_w4a8_linear_v1_top/AESL_inst_w4a8_linear_v1/m_axi_gmem_y_ARLEN -into $rdata_group -radix hex
## add_wave /apatb_w4a8_linear_v1_top/AESL_inst_w4a8_linear_v1/m_axi_gmem_y_ARID -into $rdata_group -radix hex
## add_wave /apatb_w4a8_linear_v1_top/AESL_inst_w4a8_linear_v1/m_axi_gmem_y_ARADDR -into $rdata_group -radix hex
## add_wave /apatb_w4a8_linear_v1_top/AESL_inst_w4a8_linear_v1/m_axi_gmem_y_ARREADY -into $ctrl_group -color #ffff00 -radix hex
## add_wave /apatb_w4a8_linear_v1_top/AESL_inst_w4a8_linear_v1/m_axi_gmem_y_ARVALID -into $ctrl_group -color #ffff00 -radix hex
## add_wave /apatb_w4a8_linear_v1_top/AESL_inst_w4a8_linear_v1/m_axi_gmem_y_WUSER -into $wdata_group -radix hex
## add_wave /apatb_w4a8_linear_v1_top/AESL_inst_w4a8_linear_v1/m_axi_gmem_y_WID -into $wdata_group -radix hex
## add_wave /apatb_w4a8_linear_v1_top/AESL_inst_w4a8_linear_v1/m_axi_gmem_y_WLAST -into $ctrl_group -color #ffff00 -radix hex
## add_wave /apatb_w4a8_linear_v1_top/AESL_inst_w4a8_linear_v1/m_axi_gmem_y_WSTRB -into $wdata_group -radix hex
## add_wave /apatb_w4a8_linear_v1_top/AESL_inst_w4a8_linear_v1/m_axi_gmem_y_WDATA -into $wdata_group -radix hex
## add_wave /apatb_w4a8_linear_v1_top/AESL_inst_w4a8_linear_v1/m_axi_gmem_y_WREADY -into $ctrl_group -color #ffff00 -radix hex
## add_wave /apatb_w4a8_linear_v1_top/AESL_inst_w4a8_linear_v1/m_axi_gmem_y_WVALID -into $ctrl_group -color #ffff00 -radix hex
## add_wave /apatb_w4a8_linear_v1_top/AESL_inst_w4a8_linear_v1/m_axi_gmem_y_AWUSER -into $wdata_group -radix hex
## add_wave /apatb_w4a8_linear_v1_top/AESL_inst_w4a8_linear_v1/m_axi_gmem_y_AWREGION -into $wdata_group -radix hex
## add_wave /apatb_w4a8_linear_v1_top/AESL_inst_w4a8_linear_v1/m_axi_gmem_y_AWQOS -into $wdata_group -radix hex
## add_wave /apatb_w4a8_linear_v1_top/AESL_inst_w4a8_linear_v1/m_axi_gmem_y_AWPROT -into $wdata_group -radix hex
## add_wave /apatb_w4a8_linear_v1_top/AESL_inst_w4a8_linear_v1/m_axi_gmem_y_AWCACHE -into $wdata_group -radix hex
## add_wave /apatb_w4a8_linear_v1_top/AESL_inst_w4a8_linear_v1/m_axi_gmem_y_AWLOCK -into $wdata_group -radix hex
## add_wave /apatb_w4a8_linear_v1_top/AESL_inst_w4a8_linear_v1/m_axi_gmem_y_AWBURST -into $wdata_group -radix hex
## add_wave /apatb_w4a8_linear_v1_top/AESL_inst_w4a8_linear_v1/m_axi_gmem_y_AWSIZE -into $wdata_group -radix hex
## add_wave /apatb_w4a8_linear_v1_top/AESL_inst_w4a8_linear_v1/m_axi_gmem_y_AWLEN -into $wdata_group -radix hex
## add_wave /apatb_w4a8_linear_v1_top/AESL_inst_w4a8_linear_v1/m_axi_gmem_y_AWID -into $wdata_group -radix hex
## add_wave /apatb_w4a8_linear_v1_top/AESL_inst_w4a8_linear_v1/m_axi_gmem_y_AWADDR -into $wdata_group -radix hex
## add_wave /apatb_w4a8_linear_v1_top/AESL_inst_w4a8_linear_v1/m_axi_gmem_y_AWREADY -into $ctrl_group -color #ffff00 -radix hex
## add_wave /apatb_w4a8_linear_v1_top/AESL_inst_w4a8_linear_v1/m_axi_gmem_y_AWVALID -into $ctrl_group -color #ffff00 -radix hex
## set cinputgroup [add_wave_group "C Inputs" -into $designtopgroup]
## set xq__sx_group [add_wave_group xq__sx(axi_master) -into $cinputgroup]
## set rdata_group [add_wave_group "Read Channel" -into $xq__sx_group]
## set wdata_group [add_wave_group "Write Channel" -into $xq__sx_group]
## set ctrl_group [add_wave_group "Handshakes" -into $xq__sx_group]
## add_wave /apatb_w4a8_linear_v1_top/AESL_inst_w4a8_linear_v1/m_axi_gmem_x_BUSER -into $wdata_group -radix hex
## add_wave /apatb_w4a8_linear_v1_top/AESL_inst_w4a8_linear_v1/m_axi_gmem_x_BID -into $wdata_group -radix hex
## add_wave /apatb_w4a8_linear_v1_top/AESL_inst_w4a8_linear_v1/m_axi_gmem_x_BRESP -into $wdata_group -radix hex
## add_wave /apatb_w4a8_linear_v1_top/AESL_inst_w4a8_linear_v1/m_axi_gmem_x_BREADY -into $ctrl_group -color #ffff00 -radix hex
## add_wave /apatb_w4a8_linear_v1_top/AESL_inst_w4a8_linear_v1/m_axi_gmem_x_BVALID -into $ctrl_group -color #ffff00 -radix hex
## add_wave /apatb_w4a8_linear_v1_top/AESL_inst_w4a8_linear_v1/m_axi_gmem_x_RRESP -into $rdata_group -radix hex
## add_wave /apatb_w4a8_linear_v1_top/AESL_inst_w4a8_linear_v1/m_axi_gmem_x_RUSER -into $rdata_group -radix hex
## add_wave /apatb_w4a8_linear_v1_top/AESL_inst_w4a8_linear_v1/m_axi_gmem_x_RID -into $rdata_group -radix hex
## add_wave /apatb_w4a8_linear_v1_top/AESL_inst_w4a8_linear_v1/m_axi_gmem_x_RLAST -into $ctrl_group -color #ffff00 -radix hex
## add_wave /apatb_w4a8_linear_v1_top/AESL_inst_w4a8_linear_v1/m_axi_gmem_x_RDATA -into $rdata_group -radix hex
## add_wave /apatb_w4a8_linear_v1_top/AESL_inst_w4a8_linear_v1/m_axi_gmem_x_RREADY -into $ctrl_group -color #ffff00 -radix hex
## add_wave /apatb_w4a8_linear_v1_top/AESL_inst_w4a8_linear_v1/m_axi_gmem_x_RVALID -into $ctrl_group -color #ffff00 -radix hex
## add_wave /apatb_w4a8_linear_v1_top/AESL_inst_w4a8_linear_v1/m_axi_gmem_x_ARUSER -into $rdata_group -radix hex
## add_wave /apatb_w4a8_linear_v1_top/AESL_inst_w4a8_linear_v1/m_axi_gmem_x_ARREGION -into $rdata_group -radix hex
## add_wave /apatb_w4a8_linear_v1_top/AESL_inst_w4a8_linear_v1/m_axi_gmem_x_ARQOS -into $rdata_group -radix hex
## add_wave /apatb_w4a8_linear_v1_top/AESL_inst_w4a8_linear_v1/m_axi_gmem_x_ARPROT -into $rdata_group -radix hex
## add_wave /apatb_w4a8_linear_v1_top/AESL_inst_w4a8_linear_v1/m_axi_gmem_x_ARCACHE -into $rdata_group -radix hex
## add_wave /apatb_w4a8_linear_v1_top/AESL_inst_w4a8_linear_v1/m_axi_gmem_x_ARLOCK -into $rdata_group -radix hex
## add_wave /apatb_w4a8_linear_v1_top/AESL_inst_w4a8_linear_v1/m_axi_gmem_x_ARBURST -into $rdata_group -radix hex
## add_wave /apatb_w4a8_linear_v1_top/AESL_inst_w4a8_linear_v1/m_axi_gmem_x_ARSIZE -into $rdata_group -radix hex
## add_wave /apatb_w4a8_linear_v1_top/AESL_inst_w4a8_linear_v1/m_axi_gmem_x_ARLEN -into $rdata_group -radix hex
## add_wave /apatb_w4a8_linear_v1_top/AESL_inst_w4a8_linear_v1/m_axi_gmem_x_ARID -into $rdata_group -radix hex
## add_wave /apatb_w4a8_linear_v1_top/AESL_inst_w4a8_linear_v1/m_axi_gmem_x_ARADDR -into $rdata_group -radix hex
## add_wave /apatb_w4a8_linear_v1_top/AESL_inst_w4a8_linear_v1/m_axi_gmem_x_ARREADY -into $ctrl_group -color #ffff00 -radix hex
## add_wave /apatb_w4a8_linear_v1_top/AESL_inst_w4a8_linear_v1/m_axi_gmem_x_ARVALID -into $ctrl_group -color #ffff00 -radix hex
## add_wave /apatb_w4a8_linear_v1_top/AESL_inst_w4a8_linear_v1/m_axi_gmem_x_WUSER -into $wdata_group -radix hex
## add_wave /apatb_w4a8_linear_v1_top/AESL_inst_w4a8_linear_v1/m_axi_gmem_x_WID -into $wdata_group -radix hex
## add_wave /apatb_w4a8_linear_v1_top/AESL_inst_w4a8_linear_v1/m_axi_gmem_x_WLAST -into $ctrl_group -color #ffff00 -radix hex
## add_wave /apatb_w4a8_linear_v1_top/AESL_inst_w4a8_linear_v1/m_axi_gmem_x_WSTRB -into $wdata_group -radix hex
## add_wave /apatb_w4a8_linear_v1_top/AESL_inst_w4a8_linear_v1/m_axi_gmem_x_WDATA -into $wdata_group -radix hex
## add_wave /apatb_w4a8_linear_v1_top/AESL_inst_w4a8_linear_v1/m_axi_gmem_x_WREADY -into $ctrl_group -color #ffff00 -radix hex
## add_wave /apatb_w4a8_linear_v1_top/AESL_inst_w4a8_linear_v1/m_axi_gmem_x_WVALID -into $ctrl_group -color #ffff00 -radix hex
## add_wave /apatb_w4a8_linear_v1_top/AESL_inst_w4a8_linear_v1/m_axi_gmem_x_AWUSER -into $wdata_group -radix hex
## add_wave /apatb_w4a8_linear_v1_top/AESL_inst_w4a8_linear_v1/m_axi_gmem_x_AWREGION -into $wdata_group -radix hex
## add_wave /apatb_w4a8_linear_v1_top/AESL_inst_w4a8_linear_v1/m_axi_gmem_x_AWQOS -into $wdata_group -radix hex
## add_wave /apatb_w4a8_linear_v1_top/AESL_inst_w4a8_linear_v1/m_axi_gmem_x_AWPROT -into $wdata_group -radix hex
## add_wave /apatb_w4a8_linear_v1_top/AESL_inst_w4a8_linear_v1/m_axi_gmem_x_AWCACHE -into $wdata_group -radix hex
## add_wave /apatb_w4a8_linear_v1_top/AESL_inst_w4a8_linear_v1/m_axi_gmem_x_AWLOCK -into $wdata_group -radix hex
## add_wave /apatb_w4a8_linear_v1_top/AESL_inst_w4a8_linear_v1/m_axi_gmem_x_AWBURST -into $wdata_group -radix hex
## add_wave /apatb_w4a8_linear_v1_top/AESL_inst_w4a8_linear_v1/m_axi_gmem_x_AWSIZE -into $wdata_group -radix hex
## add_wave /apatb_w4a8_linear_v1_top/AESL_inst_w4a8_linear_v1/m_axi_gmem_x_AWLEN -into $wdata_group -radix hex
## add_wave /apatb_w4a8_linear_v1_top/AESL_inst_w4a8_linear_v1/m_axi_gmem_x_AWID -into $wdata_group -radix hex
## add_wave /apatb_w4a8_linear_v1_top/AESL_inst_w4a8_linear_v1/m_axi_gmem_x_AWADDR -into $wdata_group -radix hex
## add_wave /apatb_w4a8_linear_v1_top/AESL_inst_w4a8_linear_v1/m_axi_gmem_x_AWREADY -into $ctrl_group -color #ffff00 -radix hex
## add_wave /apatb_w4a8_linear_v1_top/AESL_inst_w4a8_linear_v1/m_axi_gmem_x_AWVALID -into $ctrl_group -color #ffff00 -radix hex
## set sw_group [add_wave_group sw(axi_master) -into $cinputgroup]
## set rdata_group [add_wave_group "Read Channel" -into $sw_group]
## set wdata_group [add_wave_group "Write Channel" -into $sw_group]
## set ctrl_group [add_wave_group "Handshakes" -into $sw_group]
## add_wave /apatb_w4a8_linear_v1_top/AESL_inst_w4a8_linear_v1/m_axi_gmem_sw_BUSER -into $wdata_group -radix hex
## add_wave /apatb_w4a8_linear_v1_top/AESL_inst_w4a8_linear_v1/m_axi_gmem_sw_BID -into $wdata_group -radix hex
## add_wave /apatb_w4a8_linear_v1_top/AESL_inst_w4a8_linear_v1/m_axi_gmem_sw_BRESP -into $wdata_group -radix hex
## add_wave /apatb_w4a8_linear_v1_top/AESL_inst_w4a8_linear_v1/m_axi_gmem_sw_BREADY -into $ctrl_group -color #ffff00 -radix hex
## add_wave /apatb_w4a8_linear_v1_top/AESL_inst_w4a8_linear_v1/m_axi_gmem_sw_BVALID -into $ctrl_group -color #ffff00 -radix hex
## add_wave /apatb_w4a8_linear_v1_top/AESL_inst_w4a8_linear_v1/m_axi_gmem_sw_RRESP -into $rdata_group -radix hex
## add_wave /apatb_w4a8_linear_v1_top/AESL_inst_w4a8_linear_v1/m_axi_gmem_sw_RUSER -into $rdata_group -radix hex
## add_wave /apatb_w4a8_linear_v1_top/AESL_inst_w4a8_linear_v1/m_axi_gmem_sw_RID -into $rdata_group -radix hex
## add_wave /apatb_w4a8_linear_v1_top/AESL_inst_w4a8_linear_v1/m_axi_gmem_sw_RLAST -into $ctrl_group -color #ffff00 -radix hex
## add_wave /apatb_w4a8_linear_v1_top/AESL_inst_w4a8_linear_v1/m_axi_gmem_sw_RDATA -into $rdata_group -radix hex
## add_wave /apatb_w4a8_linear_v1_top/AESL_inst_w4a8_linear_v1/m_axi_gmem_sw_RREADY -into $ctrl_group -color #ffff00 -radix hex
## add_wave /apatb_w4a8_linear_v1_top/AESL_inst_w4a8_linear_v1/m_axi_gmem_sw_RVALID -into $ctrl_group -color #ffff00 -radix hex
## add_wave /apatb_w4a8_linear_v1_top/AESL_inst_w4a8_linear_v1/m_axi_gmem_sw_ARUSER -into $rdata_group -radix hex
## add_wave /apatb_w4a8_linear_v1_top/AESL_inst_w4a8_linear_v1/m_axi_gmem_sw_ARREGION -into $rdata_group -radix hex
## add_wave /apatb_w4a8_linear_v1_top/AESL_inst_w4a8_linear_v1/m_axi_gmem_sw_ARQOS -into $rdata_group -radix hex
## add_wave /apatb_w4a8_linear_v1_top/AESL_inst_w4a8_linear_v1/m_axi_gmem_sw_ARPROT -into $rdata_group -radix hex
## add_wave /apatb_w4a8_linear_v1_top/AESL_inst_w4a8_linear_v1/m_axi_gmem_sw_ARCACHE -into $rdata_group -radix hex
## add_wave /apatb_w4a8_linear_v1_top/AESL_inst_w4a8_linear_v1/m_axi_gmem_sw_ARLOCK -into $rdata_group -radix hex
## add_wave /apatb_w4a8_linear_v1_top/AESL_inst_w4a8_linear_v1/m_axi_gmem_sw_ARBURST -into $rdata_group -radix hex
## add_wave /apatb_w4a8_linear_v1_top/AESL_inst_w4a8_linear_v1/m_axi_gmem_sw_ARSIZE -into $rdata_group -radix hex
## add_wave /apatb_w4a8_linear_v1_top/AESL_inst_w4a8_linear_v1/m_axi_gmem_sw_ARLEN -into $rdata_group -radix hex
## add_wave /apatb_w4a8_linear_v1_top/AESL_inst_w4a8_linear_v1/m_axi_gmem_sw_ARID -into $rdata_group -radix hex
## add_wave /apatb_w4a8_linear_v1_top/AESL_inst_w4a8_linear_v1/m_axi_gmem_sw_ARADDR -into $rdata_group -radix hex
## add_wave /apatb_w4a8_linear_v1_top/AESL_inst_w4a8_linear_v1/m_axi_gmem_sw_ARREADY -into $ctrl_group -color #ffff00 -radix hex
## add_wave /apatb_w4a8_linear_v1_top/AESL_inst_w4a8_linear_v1/m_axi_gmem_sw_ARVALID -into $ctrl_group -color #ffff00 -radix hex
## add_wave /apatb_w4a8_linear_v1_top/AESL_inst_w4a8_linear_v1/m_axi_gmem_sw_WUSER -into $wdata_group -radix hex
## add_wave /apatb_w4a8_linear_v1_top/AESL_inst_w4a8_linear_v1/m_axi_gmem_sw_WID -into $wdata_group -radix hex
## add_wave /apatb_w4a8_linear_v1_top/AESL_inst_w4a8_linear_v1/m_axi_gmem_sw_WLAST -into $ctrl_group -color #ffff00 -radix hex
## add_wave /apatb_w4a8_linear_v1_top/AESL_inst_w4a8_linear_v1/m_axi_gmem_sw_WSTRB -into $wdata_group -radix hex
## add_wave /apatb_w4a8_linear_v1_top/AESL_inst_w4a8_linear_v1/m_axi_gmem_sw_WDATA -into $wdata_group -radix hex
## add_wave /apatb_w4a8_linear_v1_top/AESL_inst_w4a8_linear_v1/m_axi_gmem_sw_WREADY -into $ctrl_group -color #ffff00 -radix hex
## add_wave /apatb_w4a8_linear_v1_top/AESL_inst_w4a8_linear_v1/m_axi_gmem_sw_WVALID -into $ctrl_group -color #ffff00 -radix hex
## add_wave /apatb_w4a8_linear_v1_top/AESL_inst_w4a8_linear_v1/m_axi_gmem_sw_AWUSER -into $wdata_group -radix hex
## add_wave /apatb_w4a8_linear_v1_top/AESL_inst_w4a8_linear_v1/m_axi_gmem_sw_AWREGION -into $wdata_group -radix hex
## add_wave /apatb_w4a8_linear_v1_top/AESL_inst_w4a8_linear_v1/m_axi_gmem_sw_AWQOS -into $wdata_group -radix hex
## add_wave /apatb_w4a8_linear_v1_top/AESL_inst_w4a8_linear_v1/m_axi_gmem_sw_AWPROT -into $wdata_group -radix hex
## add_wave /apatb_w4a8_linear_v1_top/AESL_inst_w4a8_linear_v1/m_axi_gmem_sw_AWCACHE -into $wdata_group -radix hex
## add_wave /apatb_w4a8_linear_v1_top/AESL_inst_w4a8_linear_v1/m_axi_gmem_sw_AWLOCK -into $wdata_group -radix hex
## add_wave /apatb_w4a8_linear_v1_top/AESL_inst_w4a8_linear_v1/m_axi_gmem_sw_AWBURST -into $wdata_group -radix hex
## add_wave /apatb_w4a8_linear_v1_top/AESL_inst_w4a8_linear_v1/m_axi_gmem_sw_AWSIZE -into $wdata_group -radix hex
## add_wave /apatb_w4a8_linear_v1_top/AESL_inst_w4a8_linear_v1/m_axi_gmem_sw_AWLEN -into $wdata_group -radix hex
## add_wave /apatb_w4a8_linear_v1_top/AESL_inst_w4a8_linear_v1/m_axi_gmem_sw_AWID -into $wdata_group -radix hex
## add_wave /apatb_w4a8_linear_v1_top/AESL_inst_w4a8_linear_v1/m_axi_gmem_sw_AWADDR -into $wdata_group -radix hex
## add_wave /apatb_w4a8_linear_v1_top/AESL_inst_w4a8_linear_v1/m_axi_gmem_sw_AWREADY -into $ctrl_group -color #ffff00 -radix hex
## add_wave /apatb_w4a8_linear_v1_top/AESL_inst_w4a8_linear_v1/m_axi_gmem_sw_AWVALID -into $ctrl_group -color #ffff00 -radix hex
## set w_packed_group [add_wave_group w_packed(axi_master) -into $cinputgroup]
## set rdata_group [add_wave_group "Read Channel" -into $w_packed_group]
## set wdata_group [add_wave_group "Write Channel" -into $w_packed_group]
## set ctrl_group [add_wave_group "Handshakes" -into $w_packed_group]
## add_wave /apatb_w4a8_linear_v1_top/AESL_inst_w4a8_linear_v1/m_axi_gmem_w_BUSER -into $wdata_group -radix hex
## add_wave /apatb_w4a8_linear_v1_top/AESL_inst_w4a8_linear_v1/m_axi_gmem_w_BID -into $wdata_group -radix hex
## add_wave /apatb_w4a8_linear_v1_top/AESL_inst_w4a8_linear_v1/m_axi_gmem_w_BRESP -into $wdata_group -radix hex
## add_wave /apatb_w4a8_linear_v1_top/AESL_inst_w4a8_linear_v1/m_axi_gmem_w_BREADY -into $ctrl_group -color #ffff00 -radix hex
## add_wave /apatb_w4a8_linear_v1_top/AESL_inst_w4a8_linear_v1/m_axi_gmem_w_BVALID -into $ctrl_group -color #ffff00 -radix hex
## add_wave /apatb_w4a8_linear_v1_top/AESL_inst_w4a8_linear_v1/m_axi_gmem_w_RRESP -into $rdata_group -radix hex
## add_wave /apatb_w4a8_linear_v1_top/AESL_inst_w4a8_linear_v1/m_axi_gmem_w_RUSER -into $rdata_group -radix hex
## add_wave /apatb_w4a8_linear_v1_top/AESL_inst_w4a8_linear_v1/m_axi_gmem_w_RID -into $rdata_group -radix hex
## add_wave /apatb_w4a8_linear_v1_top/AESL_inst_w4a8_linear_v1/m_axi_gmem_w_RLAST -into $ctrl_group -color #ffff00 -radix hex
## add_wave /apatb_w4a8_linear_v1_top/AESL_inst_w4a8_linear_v1/m_axi_gmem_w_RDATA -into $rdata_group -radix hex
## add_wave /apatb_w4a8_linear_v1_top/AESL_inst_w4a8_linear_v1/m_axi_gmem_w_RREADY -into $ctrl_group -color #ffff00 -radix hex
## add_wave /apatb_w4a8_linear_v1_top/AESL_inst_w4a8_linear_v1/m_axi_gmem_w_RVALID -into $ctrl_group -color #ffff00 -radix hex
## add_wave /apatb_w4a8_linear_v1_top/AESL_inst_w4a8_linear_v1/m_axi_gmem_w_ARUSER -into $rdata_group -radix hex
## add_wave /apatb_w4a8_linear_v1_top/AESL_inst_w4a8_linear_v1/m_axi_gmem_w_ARREGION -into $rdata_group -radix hex
## add_wave /apatb_w4a8_linear_v1_top/AESL_inst_w4a8_linear_v1/m_axi_gmem_w_ARQOS -into $rdata_group -radix hex
## add_wave /apatb_w4a8_linear_v1_top/AESL_inst_w4a8_linear_v1/m_axi_gmem_w_ARPROT -into $rdata_group -radix hex
## add_wave /apatb_w4a8_linear_v1_top/AESL_inst_w4a8_linear_v1/m_axi_gmem_w_ARCACHE -into $rdata_group -radix hex
## add_wave /apatb_w4a8_linear_v1_top/AESL_inst_w4a8_linear_v1/m_axi_gmem_w_ARLOCK -into $rdata_group -radix hex
## add_wave /apatb_w4a8_linear_v1_top/AESL_inst_w4a8_linear_v1/m_axi_gmem_w_ARBURST -into $rdata_group -radix hex
## add_wave /apatb_w4a8_linear_v1_top/AESL_inst_w4a8_linear_v1/m_axi_gmem_w_ARSIZE -into $rdata_group -radix hex
## add_wave /apatb_w4a8_linear_v1_top/AESL_inst_w4a8_linear_v1/m_axi_gmem_w_ARLEN -into $rdata_group -radix hex
## add_wave /apatb_w4a8_linear_v1_top/AESL_inst_w4a8_linear_v1/m_axi_gmem_w_ARID -into $rdata_group -radix hex
## add_wave /apatb_w4a8_linear_v1_top/AESL_inst_w4a8_linear_v1/m_axi_gmem_w_ARADDR -into $rdata_group -radix hex
## add_wave /apatb_w4a8_linear_v1_top/AESL_inst_w4a8_linear_v1/m_axi_gmem_w_ARREADY -into $ctrl_group -color #ffff00 -radix hex
## add_wave /apatb_w4a8_linear_v1_top/AESL_inst_w4a8_linear_v1/m_axi_gmem_w_ARVALID -into $ctrl_group -color #ffff00 -radix hex
## add_wave /apatb_w4a8_linear_v1_top/AESL_inst_w4a8_linear_v1/m_axi_gmem_w_WUSER -into $wdata_group -radix hex
## add_wave /apatb_w4a8_linear_v1_top/AESL_inst_w4a8_linear_v1/m_axi_gmem_w_WID -into $wdata_group -radix hex
## add_wave /apatb_w4a8_linear_v1_top/AESL_inst_w4a8_linear_v1/m_axi_gmem_w_WLAST -into $ctrl_group -color #ffff00 -radix hex
## add_wave /apatb_w4a8_linear_v1_top/AESL_inst_w4a8_linear_v1/m_axi_gmem_w_WSTRB -into $wdata_group -radix hex
## add_wave /apatb_w4a8_linear_v1_top/AESL_inst_w4a8_linear_v1/m_axi_gmem_w_WDATA -into $wdata_group -radix hex
## add_wave /apatb_w4a8_linear_v1_top/AESL_inst_w4a8_linear_v1/m_axi_gmem_w_WREADY -into $ctrl_group -color #ffff00 -radix hex
## add_wave /apatb_w4a8_linear_v1_top/AESL_inst_w4a8_linear_v1/m_axi_gmem_w_WVALID -into $ctrl_group -color #ffff00 -radix hex
## add_wave /apatb_w4a8_linear_v1_top/AESL_inst_w4a8_linear_v1/m_axi_gmem_w_AWUSER -into $wdata_group -radix hex
## add_wave /apatb_w4a8_linear_v1_top/AESL_inst_w4a8_linear_v1/m_axi_gmem_w_AWREGION -into $wdata_group -radix hex
## add_wave /apatb_w4a8_linear_v1_top/AESL_inst_w4a8_linear_v1/m_axi_gmem_w_AWQOS -into $wdata_group -radix hex
## add_wave /apatb_w4a8_linear_v1_top/AESL_inst_w4a8_linear_v1/m_axi_gmem_w_AWPROT -into $wdata_group -radix hex
## add_wave /apatb_w4a8_linear_v1_top/AESL_inst_w4a8_linear_v1/m_axi_gmem_w_AWCACHE -into $wdata_group -radix hex
## add_wave /apatb_w4a8_linear_v1_top/AESL_inst_w4a8_linear_v1/m_axi_gmem_w_AWLOCK -into $wdata_group -radix hex
## add_wave /apatb_w4a8_linear_v1_top/AESL_inst_w4a8_linear_v1/m_axi_gmem_w_AWBURST -into $wdata_group -radix hex
## add_wave /apatb_w4a8_linear_v1_top/AESL_inst_w4a8_linear_v1/m_axi_gmem_w_AWSIZE -into $wdata_group -radix hex
## add_wave /apatb_w4a8_linear_v1_top/AESL_inst_w4a8_linear_v1/m_axi_gmem_w_AWLEN -into $wdata_group -radix hex
## add_wave /apatb_w4a8_linear_v1_top/AESL_inst_w4a8_linear_v1/m_axi_gmem_w_AWID -into $wdata_group -radix hex
## add_wave /apatb_w4a8_linear_v1_top/AESL_inst_w4a8_linear_v1/m_axi_gmem_w_AWADDR -into $wdata_group -radix hex
## add_wave /apatb_w4a8_linear_v1_top/AESL_inst_w4a8_linear_v1/m_axi_gmem_w_AWREADY -into $ctrl_group -color #ffff00 -radix hex
## add_wave /apatb_w4a8_linear_v1_top/AESL_inst_w4a8_linear_v1/m_axi_gmem_w_AWVALID -into $ctrl_group -color #ffff00 -radix hex
## set resetgroup [add_wave_group "Reset" -into $designtopgroup]
## add_wave /apatb_w4a8_linear_v1_top/AESL_inst_w4a8_linear_v1/ap_rst_n -into $resetgroup
## set clockgroup [add_wave_group "Clock" -into $designtopgroup]
## add_wave /apatb_w4a8_linear_v1_top/AESL_inst_w4a8_linear_v1/ap_clk -into $clockgroup
## save_wave_config w4a8_linear_v1.wcfg
## run all
UVM_INFO D:/2026.1/2026.1/Vivado/data/system_verilog/uvm_1.2/xlnx_uvm_package.sv(18601) @ 0: reporter [UVM/RELNOTES] 
----------------------------------------------------------------
UVM-1.2
(C) 2007-2014 Mentor Graphics Corporation
(C) 2007-2014 Cadence Design Systems, Inc.
(C) 2006-2014 Synopsys, Inc.
(C) 2011-2013 Cypress Semiconductor Corp.
(C) 2013-2014 NVIDIA Corporation
----------------------------------------------------------------

  ***********       IMPORTANT RELEASE NOTES         ************

  You are using a version of the UVM library that has been compiled
  with `UVM_NO_DEPRECATED undefined.

  You are using a version of the UVM library that has been compiled
  with `UVM_OBJECT_DO_NOT_NEED_CONSTRUCTOR undefined.

      (Specify +UVM_NO_RELNOTES to turn off this notice)

UVM_INFO D:/2026.1/2026.1/Vivado/data/system_verilog/uvm_1.2/xlnx_uvm_package.sv(18648) @ 0: reporter [NO_DPI_TSTNAME] UVM_NO_DPI defined--getting UVM_TESTNAME directly, without DPI
UVM_INFO D:/2026.1/2026.1/Vivado/data/system_verilog/uvm_1.2/xlnx_uvm_package.sv(18752) @ 0: reporter [UVMTOP] UVM testbench topology:
-------------------------------------------------------------------------------------------
Name                            Type                                Size  Value            
-------------------------------------------------------------------------------------------
uvm_test_top                    w4a8_linear_v1_test_lib             -     @378             
  top_env                       w4a8_linear_v1_env                  -     @389             
    axi_lite_control            uvm_env                             -     @575             
      item_rtr_port             uvm_analysis_port                   -     @594             
      item_wtr_port             uvm_analysis_port                   -     @584             
      master                    uvm_agent                           -     @1067            
        ardrv                   uvm_driver #(REQ,RSP)               -     @1742            
          item_read_imp         uvm_analysis_port                   -     @1771            
          rsp_port              uvm_analysis_port                   -     @1761            
          seq_item_port         uvm_seq_item_pull_port              -     @1751            
          m_num_sent            integral                            32    'h0              
        arsqr                   axi_sequencer                       -     @1781            
          rsp_export            uvm_analysis_export                 -     @1790            
          seq_item_export       uvm_seq_item_pull_imp               -     @1908            
          arbitration_queue     array                               0     -                
          lock_queue            array                               0     -                
          num_last_reqs         integral                            32    'd1              
          num_last_rsps         integral                            32    'd1              
        awdrv                   uvm_driver #(REQ,RSP)               -     @1214            
          item_read_imp         uvm_analysis_port                   -     @1243            
          rsp_port              uvm_analysis_port                   -     @1233            
          seq_item_port         uvm_seq_item_pull_port              -     @1223            
          m_num_sent            integral                            32    'h0              
        awsqr                   axi_sequencer                       -     @1253            
          rsp_export            uvm_analysis_export                 -     @1262            
          seq_item_export       uvm_seq_item_pull_imp               -     @1380            
          arbitration_queue     array                               0     -                
          lock_queue            array                               0     -                
          num_last_reqs         integral                            32    'd1              
          num_last_rsps         integral                            32    'd1              
        bdrv                    uvm_driver #(REQ,RSP)               -     @1566            
          item_read_imp         uvm_analysis_port                   -     @1595            
          rsp_port              uvm_analysis_port                   -     @1585            
          seq_item_port         uvm_seq_item_pull_port              -     @1575            
          m_num_sent            integral                            32    'h0              
        bsqr                    axi_sequencer                       -     @1605            
          rsp_export            uvm_analysis_export                 -     @1614            
          seq_item_export       uvm_seq_item_pull_imp               -     @1732            
          arbitration_queue     array                               0     -                
          lock_queue            array                               0     -                
          num_last_reqs         integral                            32    'd1              
          num_last_rsps         integral                            32    'd1              
        rdrv                    uvm_driver #(REQ,RSP)               -     @1918            
          item_read_imp         uvm_analysis_port                   -     @1947            
          rsp_port              uvm_analysis_port                   -     @1937            
          seq_item_port         uvm_seq_item_pull_port              -     @1927            
          m_num_sent            integral                            32    'h0              
        rsqr                    axi_sequencer                       -     @1957            
          rsp_export            uvm_analysis_export                 -     @1966            
          seq_item_export       uvm_seq_item_pull_imp               -     @2084            
          arbitration_queue     array                               0     -                
          lock_queue            array                               0     -                
          num_last_reqs         integral                            32    'd1              
          num_last_rsps         integral                            32    'd1              
        wdrv                    uvm_driver #(REQ,RSP)               -     @1390            
          item_read_imp         uvm_analysis_port                   -     @1419            
          rsp_port              uvm_analysis_port                   -     @1409            
          seq_item_port         uvm_seq_item_pull_port              -     @1399            
          m_num_sent            integral                            32    'h0              
        wsqr                    axi_sequencer                       -     @1429            
          rsp_export            uvm_analysis_export                 -     @1438            
          seq_item_export       uvm_seq_item_pull_imp               -     @1556            
          arbitration_queue     array                               0     -                
          lock_queue            array                               0     -                
          num_last_reqs         integral                            32    'd1              
          num_last_rsps         integral                            32    'd1              
      monitor                   uvm_monitor                         -     @889             
        item_ar2r_port          uvm_analysis_port                   -     @958             
        item_ar_port            uvm_analysis_port                   -     @928             
        item_aw2b_port          uvm_analysis_port                   -     @948             
        item_aw_port            uvm_analysis_port                   -     @898             
        item_b_port             uvm_analysis_port                   -     @918             
        item_r_port             uvm_analysis_port                   -     @938             
        item_w_port             uvm_analysis_port                   -     @908             
        checks_enable           integral                            1     'h1              
        coverage_enable         integral                            1     'h1              
      state                     axi_state                           -     @968             
        ar2r_imp                uvm_analysis_imp_ar2r               -     @1037            
        ar_imp                  uvm_analysis_imp_ar                 -     @1007            
        aw2b_imp                uvm_analysis_imp_aw2b               -     @1027            
        aw_imp                  uvm_analysis_imp_aw                 -     @977             
        b_imp                   uvm_analysis_imp_b                  -     @997             
        item_rtr_port           uvm_analysis_port                   -     @1057            
        item_wtr_port           uvm_analysis_port                   -     @1047            
        r_imp                   uvm_analysis_imp_r                  -     @1017            
        w_imp                   uvm_analysis_imp_w                  -     @987             
        avg_rate                integral                            32    'h0              
        exp_rate                integral                            32    'h0              
        win_size                integral                            32    'h0              
        bqnum_for_slaseq        integral                            32    'h0              
        rq_from_model_num       integral                            32    'h0              
      vsqr                      axi_virtual_sequencer               -     @1076            
        rsp_export              uvm_analysis_export                 -     @1085            
        seq_item_export         uvm_seq_item_pull_imp               -     @1203            
        arbitration_queue       array                               0     -                
        lock_queue              array                               0     -                
        num_last_reqs           integral                            32    'd1              
        num_last_rsps           integral                            32    'd1              
      cfg                       axi_cfg                             -     @409             
        has_checker             integral                            1     'h1              
        has_coverage            integral                            1     'h1              
        id_num                  integral                            32    'h1              
        reset_level             reset_level_enum                    32    RESET_LEVEL_LOW  
        drv_type                drv_type_enum                       32    MASTER           
        write_latency_mode      latency_mode_enum                   32    CHANNEL_FIRST    
        read_latency_mode       latency_mode_enum                   32    CHANNEL_FIRST    
        clatency                axi_latency                         -     @573             
          wr_latency            integral                            32    'h0              
          rd_latency            integral                            32    'h0              
    axi_master_gmem_meta        uvm_env                             -     @544             
      item_rtr_port             uvm_analysis_port                   -     @563             
      item_wtr_port             uvm_analysis_port                   -     @553             
      monitor                   uvm_monitor                         -     @2167            
        item_ar2r_port          uvm_analysis_port                   -     @2236            
        item_ar_port            uvm_analysis_port                   -     @2206            
        item_aw2b_port          uvm_analysis_port                   -     @2226            
        item_aw_port            uvm_analysis_port                   -     @2176            
        item_b_port             uvm_analysis_port                   -     @2196            
        item_r_port             uvm_analysis_port                   -     @2216            
        item_w_port             uvm_analysis_port                   -     @2186            
        checks_enable           integral                            1     'h1              
        coverage_enable         integral                            1     'h1              
      slave                     uvm_agent                           -     @2345            
        ardrv                   uvm_driver #(REQ,RSP)               -     @3022            
          item_read_imp         uvm_analysis_port                   -     @3051            
          rsp_port              uvm_analysis_port                   -     @3041            
          seq_item_port         uvm_seq_item_pull_port              -     @3031            
          m_num_sent            integral                            32    'h0              
        arsqr                   axi_sequencer                       -     @3061            
          rsp_export            uvm_analysis_export                 -     @3070            
          seq_item_export       uvm_seq_item_pull_imp               -     @3188            
          arbitration_queue     array                               0     -                
          lock_queue            array                               0     -                
          num_last_reqs         integral                            32    'd1              
          num_last_rsps         integral                            32    'd1              
        awdrv                   uvm_driver #(REQ,RSP)               -     @2494            
          item_read_imp         uvm_analysis_port                   -     @2523            
          rsp_port              uvm_analysis_port                   -     @2513            
          seq_item_port         uvm_seq_item_pull_port              -     @2503            
          m_num_sent            integral                            32    'h0              
        awsqr                   axi_sequencer                       -     @2533            
          rsp_export            uvm_analysis_export                 -     @2542            
          seq_item_export       uvm_seq_item_pull_imp               -     @2660            
          arbitration_queue     array                               0     -                
          lock_queue            array                               0     -                
          num_last_reqs         integral                            32    'd1              
          num_last_rsps         integral                            32    'd1              
        bdrv                    uvm_driver #(REQ,RSP)               -     @2846            
          item_read_imp         uvm_analysis_port                   -     @2875            
          rsp_port              uvm_analysis_port                   -     @2865            
          seq_item_port         uvm_seq_item_pull_port              -     @2855            
          m_num_sent            integral                            32    'h0              
        bsqr                    axi_sequencer                       -     @2885            
          rsp_export            uvm_analysis_export                 -     @2894            
          seq_item_export       uvm_seq_item_pull_imp               -     @3012            
          arbitration_queue     array                               0     -                
          lock_queue            array                               0     -                
          num_last_reqs         integral                            32    'd1              
          num_last_rsps         integral                            32    'd1              
        rdrv                    uvm_driver #(REQ,RSP)               -     @3198            
          item_read_imp         uvm_analysis_port                   -     @3227            
          rsp_port              uvm_analysis_port                   -     @3217            
